!Keysight Technologies,N5245B,MY49151002,A.19.00.09
!Date: Tuesday, March 11, 2025 11:57:48
!Correction: S11(C  2-Port  ) 
!S21(C  2-Port  ) 
!S12(C  2-Port  ) 
!S22(C  2-Port  ) 
!S2P File: Measurements: S11, S21, S12, S22:
# Hz S  dB   R 50
110000000000 -1.5435116 -27.076132 -57.581593 -95.663757 -57.446266 -111.64698 -1.8463756 -25.344927
110100000000 -1.2406808 -30.998415 -56.343628 -111.95925 -56.611629 -115.25065 -1.9506873 -27.293509
110200000000 -1.0782915 -35.843151 -56.279716 -121.85696 -55.578289 -134.36894 -1.7549858 -28.805702
110300000000 -1.2042249 -40.558067 -55.973206 -140.28868 -55.845734 -150.08215 -1.6103222 -32.478786
110400000000 -1.5731796 -44.550156 -56.075237 -152.24348 -55.461327 -162.45419 -1.6226423 -36.072811
110500000000 -1.7549218 -45.071198 -55.580711 -167.40239 -55.713642 -176.45354 -1.6547196 -39.636063
110600000000 -1.6375469 -46.325447 -56.256081 -178.82719 -55.784424 167.41389 -1.723492 -43.26281
110700000000 -1.3705257 -48.583889 -55.98035 170.66771 -54.328365 157.78485 -1.9169499 -45.80798
110800000000 -1.1168336 -52.767437 -55.530376 156.44923 -54.812019 145.02432 -1.960191 -47.840424
110900000000 -1.1468449 -57.323826 -55.030209 135.26459 -55.211151 131.47171 -1.8292595 -50.536674
111000000000 -1.383512 -61.102573 -54.841499 125.87666 -55.028278 115.55547 -1.7404764 -53.819077
111100000000 -1.630983 -63.227261 -55.405136 108.47852 -55.985367 105.23463 -1.7276269 -57.647427
111200000000 -1.6046779 -64.125313 -56.495251 103.62713 -55.160667 90.738396 -1.8073634 -60.566387
111300000000 -1.4109668 -66.081795 -56.62114 82.974213 -55.969692 82.474709 -1.9100152 -62.556038
111400000000 -1.211043 -69.376991 -54.922333 71.050941 -55.381573 65.263283 -1.8927211 -64.435226
111500000000 -1.1404333 -73.943077 -54.960651 56.12088 -56.330101 50.091221 -1.7184962 -67.561523
111600000000 -1.2819918 -77.795654 -56.723034 39.090401 -57.149773 33.866405 -1.6487184 -71.193428
111700000000 -1.5035813 -80.18428 -57.9785 25.00305 -57.60218 19.690779 -1.7938013 -74.132019
111800000000 -1.5667711 -82.111298 -59.132191 18.974609 -59.754974 8.1846294 -1.8937542 -75.931641
111900000000 -1.4595892 -83.901878 -60.97691 16.658857 -60.613251 8.6133537 -1.807111 -78.456085
112000000000 -1.2904813 -86.560059 -61.374218 3.4168251 -63.204517 -9.2820034 -1.7789385 -81.095726
112100000000 -1.1786538 -90.383217 -62.332626 1.0931134 -61.247849 -1.3642056 -1.7192018 -83.590096
112200000000 -1.2268636 -94.31562 -62.574139 11.699229 -61.98481 5.1488128 -1.6664175 -86.479073
112300000000 -1.3912168 -97.938934 -61.680138 1.4497644 -61.810345 -5.3932858 -1.6682538 -89.936317
112400000000 -1.5211098 -99.732666 -59.651653 -4.6753035 -60.376133 -0.29905456 -1.7340446 -92.295677
112500000000 -1.5096146 -101.62054 -58.323196 -9.0862083 -58.985188 -12.476124 -1.7701395 -95.183975
112600000000 -1.389432 -103.96427 -57.395004 -26.775497 -56.908501 -25.341801 -1.7605649 -97.849861
112700000000 -1.2045139 -107.50691 -56.491112 -35.959442 -56.736355 -43.608349 -1.7250899 -101.13043
112800000000 -1.2210197 -111.6002 -55.798279 -52.466862 -55.078491 -55.518303 -1.5967963 -104.09959
112900000000 -1.3186734 -114.73766 -55.210831 -73.645096 -55.49609 -71.694572 -1.5992688 -107.2154
113000000000 -1.4104441 -117.84222 -55.700718 -83.558777 -54.82798 -87.99305 -1.6706588 -110.604
113100000000 -1.462476 -119.76128 -54.772655 -100.44491 -54.684677 -99.704865 -1.6734238 -112.89268
113200000000 -1.403493 -121.68774 -55.298256 -116.47797 -55.630608 -117.78671 -1.5916557 -115.20374
113300000000 -1.352955 -124.55201 -55.337753 -131.32565 -54.191109 -133.60135 -1.5081072 -118.20766
113400000000 -1.3125156 -127.65535 -55.377369 -144.97453 -55.211468 -145.61618 -1.4422923 -121.79081
113500000000 -1.3228718 -130.4567 -55.927879 -161.06735 -55.474182 -162.20374 -1.415759 -124.45992
113600000000 -1.3739053 -133.65213 -56.358349 -170.02318 -56.036537 -176.04794 -1.4453045 -127.55269
113700000000 -1.4334147 -136.05559 -55.663273 -179.6082 -56.438248 172.01775 -1.5099701 -130.06813
113800000000 -1.4786382 -137.83249 -56.734913 159.47491 -56.46801 158.86932 -1.5119649 -132.52443
113900000000 -1.4118098 -140.61444 -56.652996 156.27686 -56.525372 144.84436 -1.4511307 -135.60477
114000000000 -1.3468437 -143.31773 -56.133411 135.92801 -57.242748 133.0341 -1.4002818 -138.41574
114100000000 -1.3134221 -146.38397 -56.83213 123.35007 -57.65527 113.47006 -1.3850006 -141.51994
114200000000 -1.3948442 -149.50137 -57.259804 106.69537 -57.483742 100.0814 -1.3255099 -144.07101
114300000000 -1.5042301 -152.19409 -58.098732 89.044434 -58.479805 90.114105 -1.4381716 -146.50781
114400000000 -1.563965 -154.61635 -59.424057 74.715118 -59.377941 79.594757 -1.5060914 -149.55257
114500000000 -1.5800309 -156.74333 -60.719711 64.844063 -61.735844 64.756462 -1.5331967 -151.93317
114600000000 -1.5618343 -159.18985 -61.708858 62.790211 -62.08725 55.688656 -1.4906321 -154.63466
114700000000 -1.5349815 -161.99225 -61.82888 55.998611 -61.516796 52.117432 -1.4042981 -158.3952
114800000000 -1.5287683 -164.76408 -61.70018 43.415863 -62.314751 45.973415 -1.4639512 -161.45621
114900000000 -1.5877784 -167.16963 -60.925587 44.269875 -61.804527 44.870911 -1.4857533 -164.3345
115000000000 -1.5965589 -169.48721 -60.32074 37.561089 -60.135929 31.203707 -1.5262249 -166.87898
115100000000 -1.6871176 -171.74007 -58.537304 22.027397 -58.539726 18.758512 -1.5543777 -169.48375
115200000000 -1.730763 -173.96898 -57.287533 0.61796707 -56.931519 0.2335449 -1.490075 -171.97464
115300000000 -1.6344434 -176.64012 -57.166824 -17.277317 -56.385025 -15.980408 -1.380599 -175.00273
115400000000 -1.6606953 -179.65773 -55.590225 -39.432899 -55.557388 -39.694206 -1.3666728 -178.77086
115500000000 -1.7040172 178.02898 -55.168335 -60.655163 -55.184521 -64.163902 -1.4081123 178.00098
115600000000 -1.7237592 175.99806 -54.773159 -83.273354 -54.626194 -85.810501 -1.4837886 175.18956
115700000000 -1.7499176 173.85609 -54.683441 -108.98663 -54.803631 -108.47936 -1.5471286 172.31371
115800000000 -1.7481592 171.86308 -54.473118 -127.654 -54.615383 -129.59383 -1.5455232 169.81007
115900000000 -1.6522168 169.97997 -54.200752 -148.37613 -54.766411 -150.30939 -1.4817345 167.62187
116000000000 -1.4911841 167.26778 -53.902172 -168.61484 -54.273026 -172.38782 -1.3966427 164.59886
116100000000 -1.408264 164.19867 -53.654171 170.81699 -54.078259 167.2758 -1.3555382 161.11174
116200000000 -1.4005619 161.20355 -53.968212 150.68719 -54.329754 150.12555 -1.422256 158.02855
116300000000 -1.4062124 158.42 -54.088558 136.26602 -53.90847 134.42528 -1.5314723 155.12393
116400000000 -1.38897 155.56613 -54.07972 118.20652 -53.967953 117.4467 -1.6153017 152.53636
116500000000 -1.3709143 152.85551 -54.095161 102.67684 -53.736526 105.19715 -1.6355085 149.91051
116600000000 -1.30155 150.3461 -53.547073 95.84893 -53.338593 93.621758 -1.5734072 146.9259
116700000000 -1.232815 147.15099 -53.08548 84.963013 -52.782234 78.989662 -1.5405872 144.1356
116800000000 -1.2251146 144.08893 -52.01186 70.382896 -51.973042 69.361664 -1.556532 140.76996
116900000000 -1.272415 140.79333 -51.161537 57.389046 -51.106529 56.264263 -1.6645288 137.10675
117000000000 -1.3365201 138.28339 -50.158489 46.0294 -50.154182 42.911407 -1.8019766 134.72813
117100000000 -1.355576 135.44704 -49.000885 32.726051 -49.015892 28.735987 -1.8171369 132.36942
117200000000 -1.3743224 133.27303 -48.259743 22.101532 -47.935162 14.054298 -1.8396431 129.92618
117300000000 -1.3531858 130.68028 -47.054459 5.7206569 -46.670795 -1.1396332 -1.7792001 127.34006
117400000000 -1.3334358 128.23218 -45.943001 -9.7968187 -45.830002 -15.344886 -1.7011511 124.17461
117500000000 -1.3580674 125.24686 -45.298733 -27.286581 -44.94817 -32.289406 -1.8272026 120.64005
117600000000 -1.4029584 122.79916 -44.648312 -43.500507 -44.539406 -47.897221 -1.9190925 116.94189
117700000000 -1.3948938 120.33168 -43.90255 -56.48135 -44.065418 -62.202663 -1.9016627 115.2079
117800000000 -1.3315251 118.00677 -43.507858 -70.64241 -43.51643 -75.17411 -2.0495136 111.10828
117900000000 -1.2934479 115.5309 -42.869556 -85.788277 -42.818375 -87.779335 -2.0741251 109.36054
118000000000 -1.1933948 112.47909 -42.341759 -99.181488 -42.122173 -102.868 -2.0297387 106.44816
118100000000 -1.1276864 109.24222 -41.560295 -114.58918 -41.661945 -116.57117 -2.0107079 102.93769
118200000000 -1.1574634 106.3363 -41.129826 -127.23634 -40.970139 -129.57542 -2.058671 99.490158
118300000000 -1.206834 103.40637 -40.523117 -139.79008 -40.491222 -142.65514 -2.2527707 95.946953
118400000000 -1.2245321 100.82961 -39.868656 -151.45197 -39.823536 -154.16666 -2.4794409 94.42804
118500000000 -1.1914933 98.156738 -39.076622 -163.48161 -38.967293 -166.67651 -2.6149461 92.391747
118600000000 -1.1550088 94.907143 -38.119953 -176.71811 -38.038158 178.72296 -2.6671684 90.207436
118700000000 -1.1411843 92.058868 -37.226658 168.45587 -37.053185 164.68797 -2.6343319 87.746597
118800000000 -1.1562166 88.792686 -36.446487 153.67743 -36.285973 148.91911 -2.6275468 84.432724
118900000000 -1.1833906 85.598045 -35.680584 137.37209 -35.638996 133.69572 -2.6999698 81.025734
119000000000 -1.2112256 82.683258 -35.099159 121.8569 -35.170902 120.04613 -2.8563097 77.857605
119100000000 -1.2470472 79.629684 -34.527958 106.94624 -34.510761 106.12347 -3.047883 75.375557
119200000000 -1.2566864 76.820877 -33.852692 92.245644 -33.771519 92.085442 -3.1572802 73.336151
119300000000 -1.2735356 73.703003 -33.152325 76.296776 -33.202324 77.365059 -3.2303052 71.210991
119400000000 -1.3289813 70.685448 -32.650623 60.314869 -32.580894 62.690952 -3.2763288 68.934219
119500000000 -1.3981568 67.723557 -32.176952 45.246014 -32.09293 48.046314 -3.3464005 66.4776
119600000000 -1.5090374 65.16983 -31.812555 32.021778 -31.733494 32.630882 -3.40961 64.070999
119700000000 -1.6208478 62.699116 -31.340475 17.886089 -31.317095 19.059681 -3.4742949 61.826641
119800000000 -1.6770614 60.585815 -30.864637 3.6252873 -30.768898 5.116766 -3.5425324 59.738995
119900000000 -1.6629121 58.501411 -30.194035 -10.139854 -30.113962 -9.3431015 -3.4713905 58.029247
120000000000 -1.6571484 55.867714 -29.655087 -25.961962 -29.601463 -25.725441 -3.3701024 55.135227
120100000000 -1.5900551 53.645046 -29.224653 -40.788593 -29.145952 -40.419518 -3.242075 52.488987
120200000000 -1.5539842 51.08215 -28.899996 -55.733734 -28.871571 -56.063816 -3.166944 49.097775
120300000000 -1.4828033 48.015038 -28.819956 -70.104614 -28.639383 -71.147667 -3.3438723 45.579674
120400000000 -1.4910356 45.06255 -28.44854 -82.74334 -28.403275 -85.845398 -3.2328632 43.374344
120500000000 -1.4910688 42.234283 -28.155243 -96.161011 -28.180815 -100.25085 -3.3372967 40.135437
120600000000 -1.4544522 39.120968 -27.988016 -109.20112 -27.878126 -113.66241 -3.5261824 37.89819
120700000000 -1.5156199 35.613789 -27.546959 -122.19027 -27.534792 -127.64998 -3.2764311 35.439667
120800000000 -1.6018925 32.813622 -27.288401 -134.4248 -27.255381 -140.45168 -3.3027074 32.234859
120900000000 -1.6885318 29.946423 -27.004141 -147.18935 -26.941936 -152.96442 -3.439723 28.366009
121000000000 -1.7700527 27.385021 -26.549927 -160.01614 -26.451536 -164.75232 -3.5718606 24.634171
121100000000 -1.8286616 24.65155 -25.983906 -173.66545 -25.922318 -176.59395 -3.7323885 21.813221
121200000000 -1.8709196 22.003756 -25.438238 172.35837 -25.364061 170.1315 -3.8774436 19.127045
121300000000 -1.8828599 19.623064 -24.891178 157.86923 -24.81419 155.97632 -4.0040088 16.418634
121400000000 -1.8723284 16.942541 -24.416142 143.82184 -24.361729 140.93608 -4.0978808 13.564166
121500000000 -1.8874813 14.297695 -24.071102 129.87402 -24.008627 124.76404 -4.183033 10.47572
121600000000 -1.8199962 11.750248 -23.742517 116.11573 -23.711716 110.3664 -4.2439666 7.6343503
121700000000 -1.7022221 8.7449398 -23.61779 102.31476 -23.449633 95.065491 -4.5601988 4.2466908
121800000000 -1.7444929 5.8295145 -23.416035 88.525879 -23.332375 82.31057 -4.7164321 1.2755365
121900000000 -1.6993389 2.5642869 -23.092072 75.173729 -23.166351 68.180901 -4.7463493 -1.4195006
122000000000 -1.7545185 -0.65309966 -22.983423 63.776886 -22.963335 55.492344 -4.8302798 -3.3074739
122100000000 -1.9033905 -3.9456794 -22.896301 50.853992 -22.741852 43.029911 -4.9672842 -6.0145016
122200000000 -1.9071646 -7.1392703 -22.464773 38.357758 -22.398592 31.660294 -4.9147592 -8.8089466
122300000000 -1.9553642 -9.9835663 -22.036737 24.352278 -21.986641 20.918476 -5.0216627 -12.705969
122400000000 -2.0090075 -12.709501 -21.589607 10.973316 -21.559845 8.8501062 -5.2377958 -15.947701
122500000000 -2.0420539 -15.148429 -21.138992 -1.3976327 -21.076336 -4.2215643 -5.4825659 -18.380434
122600000000 -2.0834529 -18.174057 -20.630301 -14.481162 -20.626141 -18.456844 -5.6791058 -20.330875
122700000000 -2.1525416 -21.056557 -20.305542 -28.908598 -20.239321 -32.450668 -5.9122882 -22.406698
122800000000 -2.230407 -23.926022 -19.966021 -43.67778 -19.919928 -46.209801 -6.0011721 -24.095392
122900000000 -2.3166265 -25.975801 -19.778612 -57.504185 -19.686758 -59.273357 -6.057826 -26.005861
123000000000 -2.1963034 -28.339888 -19.532003 -69.038696 -19.326662 -73.514366 -6.0102339 -27.009222
123100000000 -2.2750063 -31.228031 -19.190756 -83.596344 -19.225422 -87.458885 -5.8393517 -31.901693
123200000000 -2.206233 -34.005131 -19.01194 -97.537544 -19.045851 -100.85905 -5.8672032 -34.949947
123300000000 -2.2250435 -37.244972 -18.935213 -111.72427 -18.828127 -112.82835 -5.9166489 -38.829372
123400000000 -2.3146536 -40.640995 -18.755407 -124.43005 -18.667513 -125.90861 -5.8997598 -42.032074
123500000000 -2.4452066 -43.18153 -18.556126 -136.49536 -18.520674 -138.25969 -5.9111996 -46.224483
123600000000 -2.5123265 -46.444572 -18.405281 -149.02203 -18.310038 -151.38055 -6.1169872 -51.050697
123700000000 -2.5820379 -48.618153 -18.151201 -160.96307 -18.076572 -163.48332 -6.3277907 -55.268234
123800000000 -2.6164253 -51.19556 -17.848923 -173.23521 -17.787886 -175.62868 -6.66787 -59.77832
123900000000 -2.6385372 -54.519493 -17.483921 173.42671 -17.462593 172.4843 -7.0444613 -63.860596
124000000000 -2.7177355 -58.085564 -17.233995 159.7408 -17.131948 159.83369 -7.5220237 -67.59198
124100000000 -2.8647985 -61.559265 -16.939096 147.58183 -16.897562 146.66414 -7.9625278 -69.082703
124200000000 -3.036056 -64.999702 -16.679777 134.29976 -16.641569 132.78888 -8.3689327 -71.407951
124300000000 -3.2243264 -67.728027 -16.553934 121.13025 -16.434919 119.97886 -8.8213034 -72.239647
124400000000 -3.3198521 -70.418869 -16.323496 108.55503 -16.232956 107.01076 -9.090868 -72.005844
124500000000 -3.3721089 -72.920593 -16.116652 96.493332 -16.025223 93.07782 -9.2094994 -71.427757
124600000000 -3.386621 -75.901062 -15.968936 83.902466 -15.855853 79.161591 -9.2785168 -71.866562
124700000000 -3.3709853 -79.091042 -15.796813 71.3405 -15.706321 66.002472 -9.2226362 -72.011353
124800000000 -3.3824623 -82.543442 -15.663012 58.190411 -15.620571 53.859543 -9.1314449 -72.778496
124900000000 -3.5188727 -86.142487 -15.456667 45.007397 -15.529148 40.594349 -8.7929964 -75.681107
125000000000 -3.6364019 -89.369926 -15.52874 33.444221 -15.424812 27.518375 -8.7527103 -77.935219
125100000000 -3.7508128 -92.211891 -15.441672 21.474133 -15.356739 15.935882 -8.6641722 -81.559219
125200000000 -3.8712835 -95.238258 -15.365239 9.9736385 -15.204425 3.6664453 -8.6180267 -85.507843
125300000000 -3.8456399 -98.428398 -15.087016 -3.0092041 -15.054463 -7.6929069 -8.6513062 -89.794792
125400000000 -3.9315095 -102.20695 -14.926879 -16.085001 -14.881459 -19.569132 -8.7673836 -94.454185
125500000000 -4.0529852 -105.76175 -14.673982 -28.452963 -14.735482 -31.811134 -8.8932076 -98.811859
125600000000 -4.2556739 -108.92314 -14.667787 -39.700569 -14.638981 -43.202747 -9.3749218 -101.4642
125700000000 -4.5203953 -111.97156 -14.614802 -52.115574 -14.483289 -55.732761 -9.7640009 -106.52067
125800000000 -4.7507987 -115.05911 -14.433211 -65.488197 -14.357992 -67.201744 -10.257759 -110.00023
125900000000 -4.9040885 -117.42596 -14.236005 -78.183929 -14.209106 -78.345413 -10.831024 -112.62802
126000000000 -5.1000867 -119.68868 -14.030334 -90.244499 -14.021646 -90.476387 -11.326467 -115.05669
126100000000 -5.2609348 -121.90063 -13.913616 -101.47938 -13.853242 -103.72462 -11.820665 -116.35535
126200000000 -5.3975806 -124.64211 -13.776638 -114.18914 -13.74335 -116.9149 -12.172797 -117.73111
126300000000 -5.5122733 -127.34737 -13.714002 -126.30845 -13.634239 -128.66444 -12.432314 -118.26365
126400000000 -5.6594033 -129.7482 -13.626332 -139.35014 -13.580695 -140.7495 -12.504732 -118.65454
126500000000 -5.7454791 -132.20734 -13.612829 -152.5195 -13.509357 -151.23889 -12.477149 -119.11758
126600000000 -5.8721013 -134.28438 -13.499809 -164.48024 -13.445744 -163.31459 -12.261844 -120.72526
126700000000 -5.9037061 -136.86261 -13.377775 -175.17625 -13.362645 -176.03519 -12.024349 -122.69688
126800000000 -5.9243965 -139.66438 -13.349368 173.10132 -13.26311 171.09853 -11.904982 -125.83077
126900000000 -6.0004544 -142.72716 -13.251328 160.91977 -13.254567 159.53267 -11.768542 -129.18967
127000000000 -6.0772443 -145.43857 -13.168858 149.49243 -13.178287 148.36302 -11.681796 -132.87617
127100000000 -6.1506619 -148.83034 -13.142501 136.62949 -13.143569 137.77728 -11.722238 -137.70522
127200000000 -6.2958803 -152.23822 -13.227245 123.91751 -13.110019 126.63672 -11.938946 -143.45045
127300000000 -6.4167089 -155.1163 -13.119741 113.84393 -13.103963 115.64761 -12.188154 -147.38318
127400000000 -6.5959096 -158.18353 -12.99637 101.63161 -13.005381 105.626 -12.42177 -152.36635
127500000000 -6.7315297 -161.14696 -13.005754 90.582352 -12.92001 94.06813 -12.985535 -156.75441
127600000000 -6.8879304 -164.64653 -12.863935 78.635612 -12.801717 82.297661 -13.45341 -161.05083
127700000000 -7.0774169 -167.99767 -12.801583 67.235092 -12.729401 70.340164 -14.120659 -164.57266
127800000000 -7.2858171 -170.7455 -12.707509 55.66618 -12.658237 58.08884 -14.80689 -167.88307
127900000000 -7.5035505 -173.3268 -12.639364 45.061306 -12.592053 46.615349 -15.657316 -169.20369
128000000000 -7.7240181 -176.35104 -12.589994 34.176823 -12.52986 34.546001 -16.630594 -170.03261
128100000000 -7.9646721 -179.02202 -12.526829 23.052315 -12.477916 23.124767 -17.524357 -169.56584
128200000000 -8.1827526 178.55653 -12.445913 11.602997 -12.397559 11.442283 -18.325504 -167.7038
128300000000 -8.3707314 175.9245 -12.470918 -0.71743453 -12.350245 0.68835145 -18.996916 -164.95407
128400000000 -8.560297 173.75673 -12.33495 -10.357724 -12.320053 -10.721692 -19.188362 -160.91495
128500000000 -8.7488432 170.91075 -12.274118 -22.278852 -12.258409 -22.695034 -19.15259 -159.18997
128600000000 -8.8968086 168.45772 -12.339089 -32.511108 -12.230261 -35.506786 -18.971313 -158.10002
128700000000 -9.0796776 166.22115 -12.34288 -43.178864 -12.213181 -46.548691 -18.625565 -157.8806
128800000000 -9.1809235 163.35042 -12.247389 -53.787968 -12.19729 -57.80275 -18.278807 -159.12402
128900000000 -9.3433428 160.63406 -12.226432 -65.652962 -12.197787 -67.590622 -18.089514 -161.08022
129000000000 -9.4785757 157.79483 -12.244825 -77.692764 -12.163739 -77.42968 -18.03841 -163.54506
129100000000 -9.6315145 154.43861 -12.116101 -88.68277 -12.112927 -89.405685 -17.949615 -166.87059
129200000000 -9.8348904 151.67352 -12.141353 -99.824081 -12.10473 -99.594872 -18.076729 -170.32358
129300000000 -10.086048 149.03595 -12.113957 -110.98991 -12.078259 -110.58868 -18.20652 -173.64537
129400000000 -10.297125 146.49065 -12.079531 -122.03884 -12.05714 -121.22244 -18.508228 -177.4537
129500000000 -10.52842 143.27844 -11.999478 -133.52893 -12.012291 -131.90572 -18.801737 178.98711
129600000000 -10.802464 140.51085 -12.048235 -144.54794 -11.984674 -143.15802 -19.2659 176.64207
129700000000 -10.992545 138.19316 -12.049732 -153.75206 -11.982824 -154.69389 -19.849655 175.63589
129800000000 -11.286877 136.0784 -11.940015 -163.94589 -11.959843 -166.76096 -20.237484 174.8588
129900000000 -11.488285 134.08553 -11.953243 -174.36493 -11.912775 -177.5509 -20.697998 176.39262
