!Keysight Technologies,N5245B,MY49151002,A.19.00.09
!Date: Tuesday, March 11, 2025 14:56:24
!Correction: S11(C  2-Port  ) 
!S21(C  2-Port  ) 
!S12(C  2-Port  ) 
!S22(C  2-Port  ) 
!S2P File: Measurements: S11, S21, S12, S22:
# Hz S  dB   R 50
110000000000 -1.6891586 -5.3206749 -51.935047 71.665108 -52.341187 55.414585 -1.947775 -13.278871
110100000000 -1.4236264 -8.5630913 -51.490059 60.808559 -52.290535 42.725502 -2.024451 -14.872523
110200000000 -1.2167767 -12.85408 -51.68018 47.365833 -51.88657 28.909262 -1.794807 -16.140226
110300000000 -1.2729164 -17.597992 -51.586891 36.220371 -52.015099 10.939474 -1.5899322 -19.522812
110400000000 -1.617718 -21.762539 -52.56403 9.8393402 -52.429626 -2.51232 -1.5789733 -23.384766
110500000000 -1.8387409 -22.641848 -53.098598 2.5655489 -53.108917 -17.470907 -1.6447955 -27.163025
110600000000 -1.8004955 -23.769608 -53.818256 -7.2263675 -53.052567 -27.90069 -1.7664355 -30.852673
110700000000 -1.562863 -25.553865 -53.582985 -24.490072 -53.997498 -40.372074 -1.9472647 -33.672684
110800000000 -1.26586 -29.131447 -53.991596 -36.404362 -53.706657 -51.182869 -2.0021892 -35.767944
110900000000 -1.238796 -33.557373 -53.349751 -46.789787 -54.026028 -68.513115 -1.8447515 -38.270042
111000000000 -1.4204495 -37.561321 -55.349369 -63.094742 -55.144997 -74.542831 -1.7192369 -41.735584
111100000000 -1.6945848 -39.886448 -55.274658 -77.382141 -55.371269 -91.619621 -1.6967617 -45.562263
111200000000 -1.7130322 -40.751789 -55.906445 -85.235252 -55.206921 -100.3687 -1.7932501 -48.765717
111300000000 -1.5526156 -42.386303 -56.349442 -93.779976 -55.375607 -110.63224 -1.9316287 -50.88076
111400000000 -1.3458576 -45.217442 -56.198853 -104.1624 -55.611801 -123.67372 -1.9405311 -52.704605
111500000000 -1.2165277 -49.476078 -56.048023 -117.48121 -56.058617 -134.14812 -1.7808436 -55.857315
111600000000 -1.2942142 -53.446827 -56.466003 -129.17245 -56.098282 -142.21606 -1.7227887 -59.845238
111700000000 -1.5075353 -56.123932 -57.611031 -138.49637 -57.036636 -157.95764 -1.8482078 -63.556713
111800000000 -1.6090536 -58.027702 -56.906277 -150.27907 -56.854191 -172.8735 -1.9483507 -66.106583
111900000000 -1.5332619 -59.504383 -56.500683 -172.37849 -57.011597 178.20316 -1.9239699 -68.43409
112000000000 -1.3489536 -61.896179 -57.950706 -178.70924 -57.76825 161.65573 -1.885391 -70.790688
112100000000 -1.1782776 -65.439781 -56.996521 164.82658 -57.764019 157.15837 -1.8057349 -73.247887
112200000000 -1.1642067 -69.611473 -58.293919 144.92557 -57.155193 143.56641 -1.7267661 -76.218781
112300000000 -1.3144481 -73.611458 -57.497536 132.00047 -58.062687 121.88418 -1.7347292 -79.974724
112400000000 -1.4952832 -75.606422 -59.039833 118.34892 -58.507336 105.42014 -1.8224894 -82.916023
112500000000 -1.511544 -77.585205 -59.164326 107.28822 -58.832859 95.576614 -1.9305743 -86.223106
112600000000 -1.3998036 -79.711784 -60.791149 88.444321 -58.99408 75.925346 -1.9955926 -89.259224
112700000000 -1.2117307 -82.978912 -60.247242 78.352425 -59.265228 59.417976 -1.9855919 -92.696999
112800000000 -1.1588873 -87.148834 -60.599331 42.666012 -61.073097 34.093189 -1.876086 -95.998642
112900000000 -1.2380613 -90.650459 -60.963642 36.215149 -61.70108 26.786543 -1.8268253 -99.286522
113000000000 -1.3455697 -94.076683 -61.873779 14.546004 -61.697304 17.026955 -1.8414462 -102.82835
113100000000 -1.4122114 -96.23391 -63.341942 -9.5688972 -62.350555 -4.8566246 -1.8646604 -104.97015
113200000000 -1.3868591 -98.174438 -59.971134 -9.4866972 -62.25071 -26.358963 -1.8176632 -106.94106
113300000000 -1.3178861 -101.04192 -62.415707 -31.754215 -62.49514 -42.333153 -1.7902026 -109.5415
113400000000 -1.2580326 -104.20993 -61.773495 -52.896721 -63.504108 -54.880341 -1.7829154 -112.82186
113500000000 -1.2324355 -107.18147 -62.486588 -67.304573 -61.359787 -81.246063 -1.819043 -115.66412
113600000000 -1.2768219 -110.62984 -62.805309 -76.304337 -62.222107 -101.95591 -1.8946391 -118.9665
113700000000 -1.3516561 -113.24466 -62.699604 -98.031044 -62.237408 -113.46723 -1.9501219 -121.62313
113800000000 -1.3979475 -115.2079 -62.18325 -114.81023 -62.227463 -121.98677 -1.9476355 -123.96413
113900000000 -1.3545915 -117.86463 -61.601749 -117.32072 -60.789143 -139.68793 -1.8520497 -126.81835
114000000000 -1.2564423 -120.39203 -60.880493 -136.82726 -61.120316 -152.06894 -1.7596666 -129.14305
114100000000 -1.1804926 -123.5246 -59.660179 -147.01656 -58.584621 -164.54192 -1.7047312 -131.78046
114200000000 -1.2050078 -126.8987 -59.340271 -163.56371 -58.850456 -179.4332 -1.6926122 -134.3383
114300000000 -1.286306 -130.01561 -58.61797 -173.04752 -58.609676 171.99174 -1.7870417 -136.98447
114400000000 -1.3450968 -132.75562 -58.098381 168.84871 -57.771305 159.8019 -1.8998731 -139.92134
114500000000 -1.3773435 -135.02882 -57.646835 165.11281 -57.264301 151.65269 -1.9881761 -142.38637
114600000000 -1.3176504 -137.4892 -56.191589 148.65448 -55.906216 139.81149 -1.9810427 -145.23889
114700000000 -1.2425685 -140.42285 -54.997433 133.10396 -55.18903 126.30672 -1.9146603 -148.72969
114800000000 -1.1753534 -143.57951 -54.847176 123.52292 -54.137234 115.18166 -1.9076864 -151.78505
114900000000 -1.1879537 -146.60883 -53.260185 112.97375 -53.381954 100.05013 -1.8908379 -154.49471
115000000000 -1.2106872 -149.5368 -53.118206 98.535927 -52.818253 87.974854 -1.8741845 -156.89517
115100000000 -1.3054616 -152.27197 -52.296131 88.339447 -52.067703 78.240646 -1.8816817 -159.26274
115200000000 -1.358019 -154.76021 -50.931141 73.78096 -51.3619 65.181831 -1.8688813 -161.45155
115300000000 -1.2484407 -157.69608 -50.601002 59.852867 -50.477215 50.18269 -1.8219194 -164.04298
115400000000 -1.2103086 -161.08923 -50.071007 45.096348 -50.045189 33.711193 -1.8141053 -167.3477
115500000000 -1.1996478 -164.1035 -49.662365 29.95627 -49.597054 19.287193 -1.8638886 -170.47652
115600000000 -1.2151927 -167.02225 -49.601082 15.373291 -49.410782 4.3404093 -1.9191251 -173.3929
115700000000 -1.2638382 -170.11177 -49.274464 -0.11031058 -49.318752 -8.2177382 -1.9276569 -176.52199
115800000000 -1.3218616 -172.84207 -49.488987 -12.703655 -49.409592 -22.488783 -1.8721974 -179.37003
115900000000 -1.3027225 -175.16302 -49.651489 -23.237644 -49.372349 -30.975735 -1.7359023 178.33296
116000000000 -1.2068189 -178.30148 -49.709194 -34.944153 -49.479206 -44.017921 -1.5499994 175.30148
116100000000 -1.1659226 178.34711 -49.280258 -44.890774 -49.413624 -55.704361 -1.4425861 172.11758
116200000000 -1.2170118 174.98888 -49.78223 -56.959473 -49.851349 -66.167404 -1.4836947 169.13921
116300000000 -1.2856869 171.85974 -50.132935 -64.594788 -50.046375 -72.077652 -1.5978512 166.19472
116400000000 -1.3423516 168.83649 -50.252331 -72.99514 -50.059296 -80.90126 -1.7169154 163.66956
116500000000 -1.3803062 166.01013 -50.493599 -76.155411 -50.109417 -85.721855 -1.7929094 160.99304
116600000000 -1.3547057 163.5903 -49.878902 -78.714798 -49.667297 -90.682632 -1.7760705 158.25327
116700000000 -1.3089856 160.37381 -48.890736 -84.153358 -49.030144 -94.600655 -1.7073411 155.12416
116800000000 -1.3099 157.25677 -47.920788 -88.066353 -48.048386 -99.535767 -1.6291527 151.64803
116900000000 -1.3675466 153.79341 -47.072037 -94.966423 -46.854374 -105.04549 -1.6333325 147.83214
117000000000 -1.4497079 151.12766 -45.428478 -101.77361 -45.440346 -113.17147 -1.6713914 145.14229
117100000000 -1.4957752 148.16725 -44.102543 -109.15592 -43.919159 -123.1992 -1.6663111 142.45299
117200000000 -1.5186899 145.84618 -42.558922 -118.61156 -42.385334 -133.87137 -1.7063506 140.61751
117300000000 -1.5055692 143.09641 -40.810829 -131.83009 -40.86713 -146.18396 -1.6660542 138.21118
117400000000 -1.4805822 140.24088 -39.587112 -145.01231 -39.46838 -159.36293 -1.6397115 135.48369
117500000000 -1.5040314 136.67361 -38.356163 -160.33612 -38.345894 -175.22905 -1.7774879 131.7674
117600000000 -1.6014152 133.61823 -37.504848 -175.87244 -37.358044 170.59711 -1.9031538 128.41354
117700000000 -1.6574475 130.73528 -36.471165 170.40633 -36.43008 156.24786 -2.0091698 125.85925
117800000000 -1.7008899 127.99295 -35.498493 155.94907 -35.410248 143.84103 -2.0689757 122.6278
117900000000 -1.7540238 125.55142 -34.474915 141.94913 -34.349476 130.049 -2.0150738 120.41435
118000000000 -1.7456914 122.70076 -33.331722 126.71935 -33.315483 114.00684 -1.8860679 117.54964
118100000000 -1.7431198 119.63638 -32.390728 109.97808 -32.292244 97.96833 -1.795356 114.3828
118200000000 -1.8051422 116.92676 -31.581861 92.651749 -31.526703 80.601929 -1.7720007 111.37418
118300000000 -1.8925922 114.13335 -31.107275 75.223526 -30.996212 63.833412 -1.9298501 108.50802
118400000000 -1.9398881 111.86459 -30.66046 58.944992 -30.595844 47.963997 -2.1173425 106.94648
118500000000 -1.9254855 109.36459 -30.318848 44.445442 -30.173462 32.382214 -2.2307036 105.32963
118600000000 -1.8996097 106.3035 -29.869926 29.637386 -29.797312 16.702093 -2.2832422 103.2093
118700000000 -1.8926306 103.56763 -29.382355 14.829578 -29.338734 1.6594886 -2.2408009 100.72263
118800000000 -1.9197018 100.32668 -28.941525 -0.55218953 -28.92835 -13.612908 -2.1829176 97.122375
118900000000 -1.9801981 97.207268 -28.660769 -16.15206 -28.6467 -29.119125 -2.1739686 93.240784
119000000000 -2.0716522 94.462059 -28.504192 -32.003319 -28.426085 -42.901417 -2.2229424 89.740326
119100000000 -2.1594737 91.771294 -28.300299 -46.725105 -28.257555 -57.457565 -2.3258135 87.162094
119200000000 -2.215039 89.568573 -28.040276 -61.717667 -28.061214 -70.502014 -2.3514507 85.28714
119300000000 -2.2373219 87.136673 -27.938835 -76.469337 -27.867826 -84.216057 -2.3459971 83.49511
119400000000 -2.2521532 84.970619 -27.859858 -90.305801 -27.812105 -97.732384 -2.3113012 81.678696
119500000000 -2.2300785 82.454292 -27.832872 -103.80224 -27.776625 -110.4515 -2.3108869 79.264389
119600000000 -2.2239151 80.087341 -27.839655 -115.20437 -27.744619 -123.0811 -2.3596039 76.673889
119700000000 -2.2009094 77.591774 -27.711063 -126.57784 -27.649599 -134.28722 -2.4522305 73.838722
119800000000 -2.1654909 74.948654 -27.511574 -137.27802 -27.440567 -145.60986 -2.5401053 70.923935
119900000000 -2.1106906 72.280403 -27.15823 -148.09431 -27.096727 -156.38371 -2.5110793 68.339424
120000000000 -2.0886743 68.957977 -26.724386 -159.94214 -26.685888 -168.89792 -2.4273527 64.805389
120100000000 -2.0741587 66.405632 -26.353792 -171.39737 -26.276215 178.90314 -2.3137252 61.760662
120200000000 -2.0693855 63.672409 -25.965342 176.51804 -25.958776 166.28989 -2.2331903 58.282108
120300000000 -2.0275311 60.577309 -25.742653 164.07422 -25.685106 153.83713 -2.2849534 54.880322
120400000000 -2.0379133 57.483719 -25.487551 153.66824 -25.40521 140.686 -2.3409045 52.428104
120500000000 -2.0510235 54.439831 -25.166857 143.037 -25.138916 129.3452 -2.4603205 50.141949
120600000000 -2.0369732 51.244675 -24.817081 131.36223 -24.731441 118.13213 -2.6279233 48.014538
120700000000 -2.091614 47.664982 -24.359823 120.52396 -24.290998 105.80135 -2.6519475 46.11401
120800000000 -2.2097208 44.693695 -23.96554 108.70261 -23.892975 94.09301 -2.7606363 43.629364
120900000000 -2.3312323 41.541935 -23.617773 96.673508 -23.571493 81.647041 -2.8809659 40.405724
121000000000 -2.4721112 38.794807 -23.28215 84.876816 -23.207516 69.978004 -2.9716272 37.138435
121100000000 -2.6044259 35.930752 -22.906185 72.240593 -22.815786 59.056343 -3.058732 34.176388
121200000000 -2.7623637 33.458305 -22.483288 59.827068 -22.434935 47.351826 -3.1051149 31.682222
121300000000 -2.9095602 31.512707 -22.162977 47.157352 -22.08993 35.523293 -3.1319661 29.466173
121400000000 -2.9976943 29.694979 -21.862816 34.9743 -21.798615 22.768295 -3.1328526 27.446117
121500000000 -3.0233183 27.984877 -21.641884 24.047848 -21.563519 9.9311647 -3.1092999 25.552258
121600000000 -2.9460838 26.313932 -21.368788 12.879892 -21.308264 -2.211509 -3.1285183 23.953558
121700000000 -2.7914276 24.030148 -21.119776 1.5628798 -21.013092 -14.203555 -3.2104175 21.860023
121800000000 -2.7561486 21.56464 -20.837332 -9.4508257 -20.752974 -25.562284 -3.2395637 19.849503
121900000000 -2.6476188 18.668724 -20.477507 -21.060173 -20.457228 -37.600487 -3.1987121 17.378227
122000000000 -2.6092999 15.626443 -20.242151 -31.933228 -20.190567 -49.676353 -3.1407778 14.731876
122100000000 -2.6700091 12.532902 -20.100681 -44.207726 -20.001455 -61.23592 -3.0997918 11.082909
122200000000 -2.6219568 9.5673275 -19.881914 -56.297379 -19.795965 -71.928276 -3.0052226 7.2325397
122300000000 -2.5739605 6.5604525 -19.675781 -68.820992 -19.619646 -81.433853 -2.9438369 3.32305
122400000000 -2.5454762 3.4741333 -19.488897 -79.321495 -19.425167 -91.832672 -2.9436696 -0.30330443
122500000000 -2.5237563 0.44133639 -19.240318 -89.861061 -19.171413 -101.80978 -2.9700897 -3.3488407
122600000000 -2.5158391 -3.3425641 -18.917437 -99.605568 -18.879478 -113.18671 -3.0155711 -6.1153555
122700000000 -2.5902908 -7.0451684 -18.613274 -110.45322 -18.553497 -123.35043 -3.1112535 -9.1471081
122800000000 -2.7275922 -10.694062 -18.261106 -121.85326 -18.216223 -133.22226 -3.2208917 -12.224383
122900000000 -2.9207077 -13.507956 -17.911247 -132.06882 -17.862528 -144.1114 -3.3958619 -15.398061
123000000000 -2.9525983 -16.375071 -17.515228 -142.43692 -17.373926 -154.4613 -3.6403606 -18.570074
123100000000 -3.1880097 -19.429132 -17.065086 -153.15639 -16.992313 -166.23134 -3.8627501 -22.448755
123200000000 -3.3173878 -22.106775 -16.612061 -164.44382 -16.595835 -177.36705 -4.1594963 -25.544594
123300000000 -3.5129862 -24.772812 -16.213579 -177.24625 -16.161417 172.53001 -4.3940072 -28.067751
123400000000 -3.7589099 -27.229385 -15.865947 170.50774 -15.793669 160.36053 -4.5608602 -30.030888
123500000000 -4.018949 -28.600174 -15.554766 158.30238 -15.520229 149.06102 -4.6534734 -31.51115
123600000000 -4.1753073 -30.427038 -15.34059 145.79475 -15.260369 136.49084 -4.7448468 -33.134258
123700000000 -4.2534719 -31.049391 -15.15607 134.97893 -15.058094 125.20982 -4.7773271 -34.012848
123800000000 -4.2391853 -32.18045 -14.982363 122.59364 -14.880645 114.17337 -4.7792602 -35.17894
123900000000 -4.1350636 -34.150612 -14.772692 110.30386 -14.710172 103.47163 -4.7567172 -36.330017
124000000000 -4.0475469 -36.935452 -14.612287 97.607483 -14.542645 92.516228 -4.6977038 -38.327549
124100000000 -4.0186858 -40.021889 -14.490815 86.755585 -14.452125 80.840729 -4.6392941 -40.256157
124200000000 -4.0329876 -43.520584 -14.407417 75.457642 -14.363787 68.89888 -4.5543847 -43.493645
124300000000 -4.0917125 -46.669643 -14.410137 64.730164 -14.306837 56.948734 -4.5031958 -47.280685
124400000000 -4.0975351 -50.085907 -14.354892 54.280415 -14.24442 46.287464 -4.4752774 -51.306423
124500000000 -4.1104693 -53.283455 -14.24264 44.87748 -14.137978 35.158554 -4.4527564 -55.309059
124600000000 -4.1206012 -57.254604 -14.083611 35.723801 -13.990701 23.615347 -4.4914198 -59.620667
124700000000 -4.161603 -61.419254 -13.871485 25.749632 -13.796714 12.455275 -4.5529552 -63.217091
124800000000 -4.2726235 -65.677696 -13.651096 15.068311 -13.577714 1.764589 -4.648109 -66.372742
124900000000 -4.5389657 -69.995796 -13.451871 4.6904531 -13.401982 -9.7092619 -4.7556958 -70.220016
125000000000 -4.8511591 -73.572144 -13.301933 -4.9803276 -13.191831 -20.591389 -4.9573798 -73.592239
125100000000 -5.1952543 -76.490654 -13.097193 -15.179711 -13.022652 -32.061737 -5.2444448 -76.804031
125200000000 -5.5557461 -78.897575 -12.908592 -25.384922 -12.776217 -42.036839 -5.5582066 -79.873711
125300000000 -5.814692 -81.298904 -12.599149 -36.768738 -12.540639 -52.092079 -5.8729777 -82.606621
125400000000 -6.0967631 -83.461388 -12.356558 -48.620617 -12.300053 -62.618069 -6.1842189 -85.451759
125500000000 -6.3892016 -85.249443 -12.123834 -59.850269 -12.103886 -73.563332 -6.4085889 -87.653343
125600000000 -6.6932459 -86.492813 -12.018373 -70.551765 -11.974647 -84.699875 -6.6534123 -88.949196
125700000000 -6.9641352 -87.466667 -11.954291 -82.046898 -11.861114 -95.504425 -6.7903523 -91.106949
125800000000 -7.1389508 -88.245407 -11.871668 -94.205513 -11.793871 -105.93752 -6.8438478 -92.436501
125900000000 -7.1459799 -88.689972 -11.778977 -105.60486 -11.73995 -115.99452 -6.8210039 -93.615013
126000000000 -7.0711541 -89.482903 -11.682386 -116.47947 -11.656382 -126.81693 -6.7193799 -95.351105
126100000000 -6.926415 -90.848068 -11.637127 -126.58748 -11.580902 -138.17619 -6.6278653 -97.252525
126200000000 -6.7554722 -93.486382 -11.573332 -136.90128 -11.527396 -149.55424 -6.5197101 -99.815903
126300000000 -6.6053929 -96.60463 -11.541322 -147.57809 -11.481951 -159.68102 -6.4394693 -102.75492
126400000000 -6.5272846 -99.793037 -11.532906 -158.51851 -11.4743 -169.47279 -6.3739934 -105.93041
126500000000 -6.4659419 -103.33334 -11.546218 -169.89156 -11.477497 -178.48605 -6.3306341 -109.64931
126600000000 -6.467237 -106.57974 -11.53854 -179.58794 -11.466516 171.90793 -6.2810822 -113.79312
126700000000 -6.4430146 -110.42862 -11.479115 171.68507 -11.414539 161.27481 -6.2608547 -117.9916
126800000000 -6.4513054 -114.37923 -11.390448 162.44487 -11.325217 150.82515 -6.2758188 -122.36145
126900000000 -6.5237942 -118.72902 -11.291282 152.3284 -11.24039 141.8846 -6.3095632 -126.36634
127000000000 -6.650701 -122.79395 -11.180846 141.78989 -11.135853 132.6125 -6.363112 -130.5403
127100000000 -6.83078 -127.35147 -11.101836 131.70474 -11.054788 123.50593 -6.4975548 -134.53473
127200000000 -7.1059365 -131.90131 -11.070662 120.89172 -10.977123 114.03139 -6.7312064 -139.02686
127300000000 -7.4230452 -135.57974 -10.945669 112.03772 -10.90266 104.45889 -7.0169177 -142.25377
127400000000 -7.8034673 -139.27345 -10.820548 101.75769 -10.7791 95.69133 -7.2901721 -145.7235
127500000000 -8.1815243 -142.53111 -10.693509 91.551514 -10.651896 86.768677 -7.6862335 -149.22624
127600000000 -8.5736713 -146.10863 -10.543283 81.187897 -10.490534 76.876945 -8.0348072 -152.82338
127700000000 -9.0228596 -149.03386 -10.422021 71.074944 -10.384157 66.675552 -8.4365673 -155.96179
127800000000 -9.4981985 -151.30658 -10.316225 61.959419 -10.264583 55.769623 -8.7851572 -158.85323
127900000000 -9.9738398 -152.8425 -10.223413 52.751808 -10.178207 45.223705 -9.1444721 -160.79163
128000000000 -10.43217 -154.33733 -10.147932 42.978687 -10.085966 35.014294 -9.4833918 -162.78346
128100000000 -10.873123 -155.10806 -10.08492 33.572472 -10.009912 24.547121 -9.728447 -164.1832
128200000000 -11.219822 -155.20479 -10.00085 24.113274 -9.9328785 14.438951 -9.9179564 -165.29707
128300000000 -11.42313 -155.36946 -9.9374962 12.794922 -9.8700056 5.6750917 -10.081719 -166.56697
128400000000 -11.534708 -155.27676 -9.8887272 3.8110411 -9.8258114 -4.1994677 -10.160627 -167.24654
128500000000 -11.575279 -156.03735 -9.8202772 -6.2482133 -9.774518 -14.887797 -10.193206 -168.96336
128600000000 -11.516183 -156.8067 -9.8223639 -15.243797 -9.7508821 -25.53384 -10.208963 -170.78375
128700000000 -11.442649 -158.01732 -9.8365774 -24.047815 -9.7396832 -35.206192 -10.193368 -172.93878
128800000000 -11.299836 -160.07231 -9.7903872 -33.856865 -9.7397585 -44.705956 -10.155869 -175.52406
128900000000 -11.218306 -162.49203 -9.7822762 -43.940437 -9.7364988 -53.627048 -10.141564 -178.49619
129000000000 -11.147557 -165.3365 -9.7769175 -54.044651 -9.712719 -62.455559 -10.158469 178.13225
129100000000 -11.105438 -168.80511 -9.7232323 -62.905724 -9.6741667 -72.154068 -10.131606 174.55264
129200000000 -11.122688 -172.30553 -9.6960983 -72.649765 -9.656497 -81.16552 -10.144214 171.0237
129300000000 -11.216662 -176.03311 -9.7036505 -81.470848 -9.6491852 -90.381439 -10.176408 167.448
129400000000 -11.297589 -179.91621 -9.6624002 -91.028954 -9.632515 -99.539009 -10.240509 163.63634
129500000000 -11.445474 175.59692 -9.6327276 -101.46817 -9.5888433 -108.59734 -10.338695 159.53659
129600000000 -11.664066 171.21921 -9.6592388 -110.60788 -9.5581474 -117.54306 -10.541081 155.92274
129700000000 -11.89425 167.26776 -9.602356 -118.47406 -9.5474672 -127.68237 -10.795376 152.49617
129800000000 -12.266754 163.58363 -9.5464058 -126.90472 -9.5044842 -138.09218 -11.031276 148.62328
129900000000 -12.617272 159.9315 -9.5027504 -135.78296 -9.4460545 -147.14227 -11.358795 145.30591
