!Keysight Technologies,N5245B,MY49151002,A.19.00.09
!Date: Tuesday, March 11, 2025 14:44:14
!Correction: S11(C  2-Port  ) 
!S21(C  2-Port  ) 
!S12(C  2-Port  ) 
!S22(C  2-Port  ) 
!S2P File: Measurements: S11, S21, S12, S22:
# Hz S  dB   R 50
110000000000 -1.762784 -15.067507 -50.169819 57.499424 -49.94685 38.697178 -1.6448171 -21.346716
110100000000 -1.4789135 -18.586437 -49.622803 44.356083 -49.870735 28.153751 -1.7304955 -22.921682
110200000000 -1.2849971 -23.262024 -49.108898 31.690866 -48.98333 20.055475 -1.5206439 -24.374018
110300000000 -1.3650603 -28.060394 -49.12841 19.649948 -48.679104 7.8546152 -1.3266187 -27.931942
110400000000 -1.7087401 -31.985424 -49.12228 5.9781623 -49.092449 -6.3133407 -1.328711 -31.788685
110500000000 -1.9019082 -32.803432 -49.741409 -8.1346302 -49.371288 -17.555294 -1.3763235 -35.368889
110600000000 -1.8397685 -34.044128 -49.644951 -14.469459 -49.637989 -27.16935 -1.4528061 -38.901596
110700000000 -1.5971923 -35.981709 -49.277725 -24.88135 -49.176975 -38.055702 -1.6008912 -41.602222
110800000000 -1.3245536 -39.691441 -49.06805 -39.393299 -48.923576 -49.13084 -1.6303902 -43.61385
110900000000 -1.3136182 -44.218315 -49.027889 -51.636131 -48.672626 -62.914719 -1.483479 -46.088394
111000000000 -1.5364934 -48.129883 -49.145203 -65.407227 -49.034519 -74.58847 -1.3799043 -49.691551
111100000000 -1.8009665 -50.327621 -49.231045 -78.360008 -49.317028 -85.921211 -1.3913708 -53.540295
111200000000 -1.7996414 -51.158138 -49.629486 -89.170349 -49.488018 -97.177071 -1.4697586 -56.693592
111300000000 -1.6181868 -52.91293 -49.97094 -97.343567 -49.825661 -106.38485 -1.5699437 -58.709076
111400000000 -1.4049376 -55.883656 -49.40612 -109.3712 -49.68327 -118.27381 -1.5269982 -60.653973
111500000000 -1.3129085 -60.221527 -49.377651 -121.61589 -49.634865 -129.90079 -1.3414737 -63.778332
111600000000 -1.4207463 -64.09626 -49.854259 -138.25703 -50.122871 -143.76477 -1.2927428 -67.602409
111700000000 -1.6476152 -66.681793 -50.668468 -148.68776 -50.54652 -154.81984 -1.4227039 -71.001152
111800000000 -1.7248242 -68.414673 -50.770306 -157.92996 -50.653835 -163.81386 -1.5178636 -73.34864
111900000000 -1.6374 -70.052849 -51.561558 -163.90558 -51.170616 -170.35872 -1.4915706 -75.636528
112000000000 -1.4690045 -72.57888 -51.169945 -176.27011 -50.691025 -179.13205 -1.4766512 -78.271439
112100000000 -1.3089255 -76.240761 -51.416004 165.82889 -50.453171 169.05666 -1.4359992 -80.984238
112200000000 -1.3165872 -80.302628 -50.924534 156.68555 -50.90847 156.38829 -1.4004294 -84.123268
112300000000 -1.4604632 -84.161011 -51.764763 149.91537 -51.816601 141.37689 -1.4195068 -87.687401
112400000000 -1.6080267 -86.208626 -51.87241 136.29478 -51.423042 136.58722 -1.4985235 -90.265129
112500000000 -1.6072441 -88.227005 -52.017296 131.18178 -51.682552 122.13922 -1.5751929 -93.086365
112600000000 -1.4889162 -90.501434 -51.676487 118.33913 -51.52116 116.16405 -1.5988218 -95.717926
112700000000 -1.3128861 -93.880783 -51.633781 108.81951 -51.182472 103.61633 -1.5813529 -98.974304
112800000000 -1.2690651 -98.030106 -51.762802 95.245483 -51.267879 93.177338 -1.516628 -102.10509
112900000000 -1.3561198 -101.42383 -51.322952 84.400322 -51.094791 82.693672 -1.5338231 -105.36508
113000000000 -1.4537293 -104.82328 -51.296692 72.845352 -51.275719 67.669579 -1.6124786 -108.93291
113100000000 -1.509048 -107.01554 -50.947945 62.903385 -51.147438 57.509449 -1.6699508 -111.22023
113200000000 -1.4471785 -108.94376 -50.790352 51.848267 -50.952408 49.637486 -1.6247476 -113.34036
113300000000 -1.374598 -111.89616 -50.643398 37.281761 -50.619152 34.576138 -1.5818138 -115.97598
113400000000 -1.3005096 -115.16658 -50.453434 22.828211 -50.384712 20.648319 -1.5393528 -119.20333
113500000000 -1.2880086 -118.05374 -50.225533 8.9008284 -49.905094 3.5424836 -1.5311623 -121.68593
113600000000 -1.3344053 -121.51715 -50.031906 -4.7782226 -50.099586 -9.9303617 -1.5659829 -124.63955
113700000000 -1.3860458 -124.05376 -50.149651 -18.479679 -50.151241 -26.744827 -1.6100526 -127.0486
113800000000 -1.4381539 -126.02516 -50.66407 -34.334198 -50.326141 -42.230343 -1.6032395 -129.15598
113900000000 -1.3658299 -128.87239 -50.279076 -48.951004 -50.266689 -58.96656 -1.5354711 -132.10608
114000000000 -1.2718679 -131.62494 -50.581318 -62.356785 -50.583946 -71.16803 -1.4671047 -134.7027
114100000000 -1.2044257 -134.86011 -51.236225 -80.408287 -50.84074 -88.046829 -1.4232309 -137.57901
114200000000 -1.2338047 -138.16623 -51.611362 -96.936516 -51.542923 -102.76681 -1.3878659 -140.37325
114300000000 -1.3083037 -141.24261 -52.304653 -112.56636 -51.948299 -114.21531 -1.4402806 -143.10127
114400000000 -1.3566775 -143.9623 -52.873344 -125.62005 -52.511822 -130.93698 -1.4801536 -146.02716
114500000000 -1.3603694 -146.35612 -53.444489 -139.77129 -52.8591 -140.67584 -1.4963956 -148.36917
114600000000 -1.2950283 -148.94133 -54.072216 -153.09157 -53.891281 -154.44426 -1.4475603 -151.17903
114700000000 -1.2313678 -152.00935 -53.941422 -167.79393 -54.170074 -168.57021 -1.3780922 -154.77434
114800000000 -1.1835736 -155.23726 -54.380287 -177.08128 -54.556099 178.10338 -1.3905203 -157.96037
114900000000 -1.2138071 -158.22214 -55.117092 168.88928 -54.295841 164.69876 -1.4269841 -160.95322
115000000000 -1.244224 -161.01483 -55.494137 157.08871 -55.439434 152.15169 -1.475044 -163.65443
115100000000 -1.3172445 -163.70131 -55.67979 146.53699 -56.043758 143.86949 -1.5114927 -166.36099
115200000000 -1.3340157 -166.25023 -56.919563 141.87724 -56.567776 136.26013 -1.4969484 -168.92407
115300000000 -1.2320615 -169.19981 -56.162258 128.52446 -56.447659 128.00407 -1.4248186 -171.80386
115400000000 -1.2046587 -172.65982 -56.472317 115.04964 -56.523144 115.92714 -1.3884674 -175.31549
115500000000 -1.2108048 -175.77853 -56.037056 110.13314 -55.024139 106.24416 -1.4299579 -178.61328
115600000000 -1.2380872 -178.56569 -54.999805 101.32959 -55.671597 98.637901 -1.507843 178.65359
115700000000 -1.294802 178.47459 -54.603401 89.814186 -54.591835 90.002777 -1.5877173 175.83676
115800000000 -1.3374861 175.69061 -53.64378 79.942024 -53.350868 78.278412 -1.6197084 173.39278
115900000000 -1.3193902 173.26044 -52.162235 67.151062 -52.145176 64.179497 -1.5838107 171.38492
116000000000 -1.2357018 170.08644 -51.206203 52.267071 -50.455841 50.613308 -1.5126352 168.4353
116100000000 -1.2161088 166.64897 -49.50108 36.017231 -49.619568 32.257664 -1.4929551 165.32915
116200000000 -1.2738705 163.36752 -48.777676 17.398466 -48.925663 15.613153 -1.5730706 162.41553
116300000000 -1.3415893 160.30728 -48.263065 0.81220353 -48.135166 -0.14627081 -1.6902311 159.79002
116400000000 -1.3945975 157.37042 -47.4468 -16.119404 -47.463409 -18.243696 -1.7818146 157.57574
116500000000 -1.4164935 154.5043 -47.161068 -33.053089 -46.907814 -34.351604 -1.8108542 155.48901
116600000000 -1.4008211 151.89542 -46.234356 -44.955563 -46.210117 -49.797928 -1.7523091 153.52856
116700000000 -1.3745643 148.64738 -45.426056 -60.745975 -45.738335 -65.560921 -1.6587478 151.14928
116800000000 -1.4018308 145.57205 -45.09288 -75.470695 -45.153015 -80.04451 -1.5609124 148.3011
116900000000 -1.4871366 142.18507 -44.537663 -91.780556 -44.553928 -95.278488 -1.5647616 144.95599
117000000000 -1.5658593 139.66376 -43.87429 -105.1573 -43.777508 -110.55769 -1.6057595 142.43611
117100000000 -1.5978646 136.72899 -43.151093 -118.0244 -43.010803 -124.91554 -1.5803021 139.69957
117200000000 -1.6144735 134.45903 -42.414333 -131.50186 -42.308437 -138.9704 -1.5661222 137.68416
117300000000 -1.5824115 131.54851 -41.628395 -145.10785 -41.492664 -152.51453 -1.4442589 135.00133
117400000000 -1.5730457 128.625 -40.720947 -160.78564 -40.556881 -167.46657 -1.3191675 131.93456
117500000000 -1.6153483 125.05704 -39.899345 -176.04802 -39.92564 176.21735 -1.3544939 127.99508
117600000000 -1.7284111 121.98309 -39.391376 169.21286 -39.27919 162.11876 -1.4056078 124.62209
117700000000 -1.8020173 119.18531 -38.598392 155.15591 -38.611088 148.29382 -1.4696167 122.22623
117800000000 -1.8548659 116.43183 -37.897461 140.11388 -37.880116 135.24368 -1.5183061 119.36313
117900000000 -1.9324821 113.92149 -37.003647 127.13515 -36.952938 121.85139 -1.4755341 117.46397
118000000000 -1.9657042 111.03454 -36.082142 111.94584 -36.073471 106.36877 -1.3791538 114.78602
118100000000 -2.0043175 108.0086 -35.232346 95.745567 -35.254349 90.614037 -1.2951653 111.52825
118200000000 -2.0977573 105.51969 -34.576653 79.45507 -34.509693 74.825249 -1.2700083 108.13379
118300000000 -2.1946321 102.9284 -34.063431 63.046642 -34.077068 59.389034 -1.3948621 104.70435
118400000000 -2.230823 100.76127 -33.67503 48.333324 -33.625195 44.378017 -1.5086414 102.57274
118500000000 -2.2101729 98.276482 -33.318508 34.219898 -33.175789 29.894318 -1.5381073 100.50158
118600000000 -2.19155 95.197304 -32.767109 20.538897 -32.681416 15.137163 -1.5101922 98.072502
118700000000 -2.2080944 92.371651 -32.245056 6.7936912 -32.169487 0.82376546 -1.4141322 95.4095
118800000000 -2.2503431 89.100792 -31.75375 -8.0149708 -31.656315 -13.553378 -1.3418107 91.752472
118900000000 -2.3237178 85.899803 -31.358032 -22.665865 -31.263721 -27.450314 -1.3775699 87.908249
119000000000 -2.4309933 82.986954 -30.939589 -36.493233 -30.935568 -40.156673 -1.4977688 84.449059
119100000000 -2.5588093 80.093407 -30.535807 -50.006313 -30.491989 -53.045139 -1.6675351 81.745712
119200000000 -2.6831291 77.624672 -30.032459 -63.754688 -30.0383 -64.614052 -1.7384239 79.373795
119300000000 -2.802762 75.170761 -29.523806 -77.078651 -29.464357 -77.768135 -1.7707411 76.682945
119400000000 -2.9314253 73.371986 -28.954535 -91.780724 -28.904665 -90.44603 -1.784474 73.767769
119500000000 -3.0048103 71.685272 -28.47867 -105.8177 -28.445114 -105.6297 -1.862407 70.520187
119600000000 -2.9968746 70.365433 -28.096651 -119.80391 -28.040012 -120.21729 -1.990041 67.660133
119700000000 -2.9336772 68.772766 -27.865391 -133.58557 -27.789598 -134.119 -2.1404688 65.176247
119800000000 -2.7899272 66.66497 -27.744982 -146.93675 -27.636967 -147.60756 -2.258558 63.102814
119900000000 -2.6211097 64.205963 -27.56599 -159.06358 -27.498156 -160.20769 -2.2647595 61.610657
120000000000 -2.5067089 60.678623 -27.353802 -171.27281 -27.309341 -173.05078 -2.2035053 59.177067
120100000000 -2.4199896 57.826233 -27.106377 177.51062 -27.030287 175.6138 -2.0893755 57.065479
120200000000 -2.3866575 54.701885 -26.838165 166.61148 -26.822071 163.35767 -1.9901352 54.191208
120300000000 -2.3359168 51.287724 -26.606211 154.83018 -26.551876 151.81961 -2.0184789 50.868374
120400000000 -2.3371077 47.862 -26.295536 145.27138 -26.192698 139.97836 -2.0139046 48.155689
120500000000 -2.3556707 44.45816 -25.860527 135.17876 -25.801189 129.22551 -2.0509579 45.50193
120600000000 -2.3673358 40.95224 -25.399023 124.67228 -25.318201 118.12309 -2.0875363 42.862335
120700000000 -2.4386637 37.122295 -24.766485 114.18492 -24.732494 106.39668 -1.9719253 40.383324
120800000000 -2.5866659 33.7897 -24.263033 103.07148 -24.20223 94.945236 -1.9633297 37.25037
120900000000 -2.7460036 30.43516 -23.738428 91.273643 -23.699261 83.11657 -2.027797 33.560463
121000000000 -2.9191546 27.469738 -23.209431 78.767426 -23.162292 71.482887 -2.1219547 30.100008
121100000000 -3.0865781 24.20237 -22.661335 66.575134 -22.607645 60.243145 -2.259203 27.10462
121200000000 -3.2928131 21.274063 -22.086685 53.747234 -22.037111 48.616261 -2.3689201 24.356606
121300000000 -3.5185435 18.989296 -21.554922 40.625446 -21.494171 36.497093 -2.4775023 21.779871
121400000000 -3.7046866 16.969534 -21.035919 27.752323 -20.98805 23.718523 -2.5604804 18.996071
121500000000 -3.831943 15.495646 -20.61537 16.161901 -20.562849 9.1784525 -2.6445761 16.198545
121600000000 -3.8257997 14.064214 -20.217728 3.6626544 -20.176464 -3.5220921 -2.7470593 13.768784
121700000000 -3.7379491 12.148316 -19.898029 -8.3180246 -19.792646 -17.1245 -2.8682799 11.138228
121800000000 -3.6996193 9.9828558 -19.571339 -21.386759 -19.498383 -29.7612 -2.9064751 8.7519503
121900000000 -3.5937467 7.3136163 -19.221914 -33.567604 -19.211754 -42.462971 -2.8668547 6.1116724
122000000000 -3.5403466 4.404345 -18.989037 -45.291035 -18.941887 -55.812462 -2.8171718 3.5919099
122100000000 -3.561579 1.2126938 -18.827232 -57.732639 -18.757935 -67.881729 -2.7975202 0.32702982
122200000000 -3.5023797 -1.9210966 -18.615719 -70.402061 -18.550739 -78.974472 -2.7518377 -3.0397043
122300000000 -3.4576876 -5.209589 -18.397053 -83.177414 -18.361465 -89.046288 -2.7607107 -6.6218133
122400000000 -3.4499586 -8.6100311 -18.178762 -95.120262 -18.142536 -99.668053 -2.8266692 -10.166776
122500000000 -3.4520028 -12.036127 -17.909 -106.37279 -17.85672 -109.75292 -2.9078755 -13.425985
122600000000 -3.4942424 -16.151302 -17.577101 -116.5181 -17.549715 -121.45621 -2.9992163 -16.773235
122700000000 -3.6347017 -20.233284 -17.248472 -128.0406 -17.208729 -132.63733 -3.1134992 -20.444262
122800000000 -3.8504376 -24.134281 -16.896479 -139.42294 -16.869366 -143.56091 -3.2329404 -24.182535
122900000000 -4.1232505 -27.227377 -16.559446 -150.5071 -16.517357 -154.8177 -3.4016814 -27.70825
123000000000 -4.2832785 -30.325439 -16.180519 -161.13689 -16.041689 -166.20914 -3.6347878 -31.172287
123100000000 -4.6199656 -33.53157 -15.723571 -172.2401 -15.683811 -178.23668 -3.8573141 -35.056667
123200000000 -4.8791294 -36.243946 -15.268695 175.70311 -15.261213 170.23593 -4.1368957 -38.062447
123300000000 -5.2101178 -38.660915 -14.895811 162.62239 -14.845652 158.89696 -4.3940816 -40.595295
123400000000 -5.5585093 -40.758869 -14.551214 150.38223 -14.485548 146.80836 -4.6174927 -42.758347
123500000000 -5.8906336 -41.496143 -14.251929 137.70746 -14.206423 134.80316 -4.7945065 -44.765892
123600000000 -6.0894198 -42.651783 -14.016596 125.06425 -13.951262 122.05479 -4.9682364 -47.149406
123700000000 -6.1755419 -42.711838 -13.823914 113.67611 -13.753418 109.89373 -5.0695972 -49.066998
123800000000 -6.1225781 -43.494862 -13.628841 101.89464 -13.571953 97.590218 -5.1288562 -51.373726
123900000000 -5.9794703 -45.3578 -13.434344 88.859512 -13.391034 86.689819 -5.1421351 -53.735432
124000000000 -5.8476315 -48.173004 -13.292748 76.084373 -13.226953 74.758453 -5.1173921 -56.674515
124100000000 -5.784977 -51.445328 -13.175128 65.168724 -13.129395 62.856647 -5.0887976 -59.11158
124200000000 -5.7654066 -55.325474 -13.084262 53.736118 -13.026535 50.975067 -5.0356679 -62.370487
124300000000 -5.8040948 -58.954056 -13.047468 42.623642 -12.941572 40.407272 -5.0272102 -65.676407
124400000000 -5.8150806 -62.959858 -12.928846 31.943624 -12.830626 28.941093 -5.0649524 -69.183327
124500000000 -5.8692236 -66.853203 -12.780115 22.073366 -12.692942 17.505045 -5.1497579 -72.566887
124600000000 -5.9640703 -71.364159 -12.602526 11.518358 -12.527372 5.9894047 -5.3013864 -76.353897
124700000000 -6.1044478 -75.945129 -12.392629 1.3526281 -12.341272 -5.053216 -5.5000296 -79.815018
124800000000 -6.3442044 -80.567505 -12.196461 -9.9153728 -12.151649 -15.588755 -5.752625 -83.060226
124900000000 -6.7126126 -85.153557 -12.007999 -20.845266 -11.975916 -27.229322 -5.9961681 -87.126915
125000000000 -7.1523399 -88.983757 -11.871499 -31.473103 -11.790838 -38.550621 -6.3200288 -90.615837
125100000000 -7.6471891 -92.116409 -11.688657 -41.451481 -11.636082 -49.53973 -6.6774139 -93.740753
125200000000 -8.1487198 -94.544289 -11.521389 -52.52832 -11.419281 -60.342468 -7.0451055 -96.506844
125300000000 -8.55476 -96.570885 -11.262362 -64.332115 -11.215417 -70.655151 -7.39468 -98.635254
125400000000 -8.9773674 -98.190544 -11.084071 -76.432915 -11.028484 -81.557175 -7.7371407 -100.84727
125500000000 -9.3317432 -99.271645 -10.892414 -87.863091 -10.879353 -92.451973 -8.0242987 -102.27151
125600000000 -9.6602793 -99.907524 -10.814627 -98.099785 -10.778415 -103.11114 -8.3440428 -102.95016
125700000000 -9.9337168 -100.29588 -10.74871 -109.59524 -10.689695 -114.58427 -8.5567312 -104.67761
125800000000 -10.087953 -100.62108 -10.674957 -121.43806 -10.627456 -125.00962 -8.713644 -105.83277
125900000000 -10.074943 -100.80139 -10.590909 -133.27704 -10.554163 -134.9637 -8.7707033 -107.31086
126000000000 -10.000712 -101.72868 -10.505116 -144.05444 -10.474076 -145.80981 -8.7586136 -109.55973
126100000000 -9.874917 -103.36939 -10.453125 -154.36523 -10.400038 -157.32724 -8.7432413 -112.2458
126200000000 -9.7454634 -106.29985 -10.386549 -164.82285 -10.345908 -168.70314 -8.6947088 -115.43269
126300000000 -9.6478901 -109.64536 -10.336108 -175.35426 -10.290915 -179.22289 -8.647418 -118.74684
126400000000 -9.6347704 -113.26682 -10.311469 173.44319 -10.258156 171.24072 -8.6115704 -122.10523
126500000000 -9.6465816 -117.20577 -10.292554 162.17096 -10.235082 161.72083 -8.6030359 -125.81119
126600000000 -9.7396488 -121.14259 -10.250965 152.1859 -10.197231 151.73528 -8.6331911 -129.72508
126700000000 -9.8554745 -125.51392 -10.165788 143.20139 -10.125785 140.53893 -8.729476 -133.65508
126800000000 -10.045938 -129.70482 -10.081274 133.65089 -10.033218 129.74785 -8.8891191 -137.67726
126900000000 -10.319704 -133.8804 -10.006594 122.9962 -9.9697285 119.74158 -9.0992479 -141.45268
127000000000 -10.640645 -137.75046 -9.9346228 112.18379 -9.8852978 110.37775 -9.3317509 -145.37643
127100000000 -11.00523 -142.01184 -9.8685808 101.08716 -9.8278437 101.02832 -9.6081142 -149.22983
127200000000 -11.481201 -146.22896 -9.8475952 89.887383 -9.785346 91.061668 -9.9532137 -153.43977
127300000000 -12.066144 -149.31009 -9.7765579 80.626747 -9.751543 81.234108 -10.332438 -156.3224
127400000000 -12.691991 -151.93535 -9.6939459 69.898384 -9.6743002 72.436455 -10.654903 -159.05753
127500000000 -13.313917 -153.57953 -9.6357317 59.962738 -9.6052551 62.30883 -11.047301 -161.43253
127600000000 -13.892309 -154.79494 -9.5543709 49.250893 -9.5313549 52.332619 -11.362751 -163.66925
127700000000 -14.446356 -155.24455 -9.4981823 39.12265 -9.4748869 41.737984 -11.716637 -165.23305
127800000000 -14.904623 -154.8624 -9.4535151 29.557873 -9.4187784 31.214695 -12.007225 -166.71414
127900000000 -15.261882 -153.80257 -9.419075 20.411303 -9.3815489 21.122169 -12.291521 -167.46774
128000000000 -15.501348 -152.88174 -9.4048033 10.678236 -9.355978 10.599303 -12.549065 -168.74007
128100000000 -15.587488 -152.01433 -9.3895121 1.0553532 -9.3358469 0.016452391 -12.700957 -170.21266
128200000000 -15.57849 -151.39975 -9.3567419 -8.6618176 -9.3019266 -9.4776258 -12.816046 -171.92578
128300000000 -15.444951 -151.84424 -9.3337355 -19.530008 -9.2836828 -18.467907 -12.909582 -174.42036
128400000000 -15.289959 -152.61723 -9.3204679 -28.618139 -9.2728891 -28.376926 -12.951134 -176.43277
128500000000 -15.155619 -154.59627 -9.2861776 -38.166763 -9.2485685 -38.484493 -12.953941 -179.4733
128600000000 -14.945713 -156.8904 -9.2969742 -46.741596 -9.2334585 -49.406929 -12.940066 177.4295
128700000000 -14.790306 -159.59004 -9.3318853 -55.476994 -9.241972 -59.292831 -12.929718 174.0555
128800000000 -14.623405 -163.38843 -9.2833834 -64.717705 -9.2506342 -69.28553 -12.952752 170.53995
128900000000 -14.579845 -167.36539 -9.2863588 -75.187347 -9.2451925 -77.79364 -13.048429 166.83516
129000000000 -14.596461 -171.41064 -9.2813673 -85.513283 -9.23528 -85.980721 -13.212425 163.01137
129100000000 -14.678275 -175.7585 -9.242259 -95.156227 -9.2043982 -95.418152 -13.394308 158.98178
129200000000 -14.807921 -179.82578 -9.2163134 -103.9684 -9.1944933 -105.05117 -13.62422 154.95592
129300000000 -15.019952 175.95587 -9.2246542 -113.48408 -9.1801491 -114.28325 -13.851217 150.99734
129400000000 -15.218264 171.6371 -9.1891985 -123.58955 -9.1696196 -122.9563 -14.124756 146.71385
129500000000 -15.511512 167.134 -9.1677723 -133.53221 -9.1534367 -132.26485 -14.408759 142.27525
129600000000 -15.86128 162.78865 -9.2021942 -142.75813 -9.129571 -141.71086 -14.741683 138.63522
129700000000 -16.234901 159.05281 -9.1650743 -151.36896 -9.1152992 -151.54196 -15.122644 135.4355
129800000000 -16.727127 155.74602 -9.1286678 -159.03036 -9.0916529 -162.02423 -15.478357 132.13434
129900000000 -17.189264 152.93092 -9.1072617 -167.601 -9.0591364 -171.08611 -15.934288 129.90648
