!Keysight Technologies PLTS 2023U1(64 bit), Build 20230630.1
!Deembedding/AFR applied
!FILE: C:\Users\jaha\OneDrive - Nokia\Project\Deacon_v3\Measure\250307 MPW12 GapWG\GapWG_Line1.s2p
!$DUT_CFG_DESC: Default 2-Port Configuration
!$NUMBER_PORTS: 2
!$DIFF_PORT_MAP: 1|1P|2|1P|
!$PORT_MAP: 1|1|<<<<<<|2|2|>>>>>>|
!Date: Thursday, March 20, 2025, 10:11:33
!S2P File: Measurements: S11,S21,S12,S22:
# MHz S  RI   R 50
110000       -0.0429909144300839      0.254275914720144        0.000346678437110298     -0.000410453951879427    0.000308542675747397     -0.000437912744476909    0.0331770397587978       -0.352775745027517      
110100       -0.0515188814717721      0.17564447763191         0.000251862070127025     -0.000478931568689687    0.00011153784400772      -0.000521182481832805    0.0360232832168836       -0.269969741808783      
110200       -0.067283204589588       0.149992647970808        8.93894227415783E-05     -0.000590863946350316    8.2788586657917E-06      -0.000560650444272448    0.0368226745556953       -0.229386266131319      
110300       -0.067569454573248       0.151647686076922        -6.16792049599567E-05    -0.000674869255420027    -0.000158218046125126    -0.000632942939795267    0.032931992125845        -0.207302935018529      
110400       -0.0502564230667867      0.152438584585256        -0.000233661072629366    -0.000577304861045059    -0.000287337082867184    -0.00053387395233441     0.028300444404145        -0.191372559193522      
110500       -0.0327824390043982      0.135676804095679        -0.000307579427137936    -0.000511682298415775    -0.000445437322518616    -0.000499997246324879    0.0283494011666925       -0.178667740712586      
110600       -0.0374949079371538      0.107134745616216        -0.000526181788656642    -0.000585130203543551    -0.00064967906203317     -0.000420592417702315    0.0343785005657201       -0.171706263996803      
110700       -0.0709257711839553      0.0906067754808748       -0.000757933441215482    -0.000375499927226413    -0.000869409316759884    -0.000186676326673796    0.0422077013507257       -0.171616723875652      
110800       -0.113626474518828       0.106386955098609        -0.000840857807993122    -3.92023622497486E-05    -0.000892425041897571    7.47685792101827E-06     0.0472772028327524       -0.173562971697444      
110900       -0.134155502525832       0.14862036544404         -0.000795714416207445    0.00012726746783662      -0.000859907580329888    0.000252553287844126     0.0515000670211922       -0.170338792740316      
111000       -0.118991886444749       0.186271146085635        -0.000885711591149044    0.000446589853658915     -0.000756844014880187    0.00054852093072455      0.0623273593639208       -0.161981056571176      
111100       -0.0872485252080629      0.192279074572001        -0.000707985423581244    0.000627259202109951     -0.000632584977161343    0.000727954791379659     0.0817610206380091       -0.159002907920656      
111200       -0.0707476865946349      0.17052310627195         -0.000392786122046289    0.000968044768594648     -0.000331345063857569    0.000910912132425779     0.0980840813170378       -0.171180560217994      
111300       -0.0813710839075077      0.149453185274377        -0.000189325812371299    0.00116652111545337      -5.01734153903755E-05    0.00116174852060968      0.0937922157557919       -0.192782348875064      
111400       -0.102404364218355       0.151472906522372        0.000128570268048079     0.00120849958586978      0.000285320723933502     0.00118943049497133      0.063998633069249        -0.202588539247312      
111500       -0.109546759736081       0.172989871550196        0.000583431062865769     0.00118015788808309      0.000673717080836411     0.00104577461243682      0.0260390675477898       -0.181230572494271      
111600       -0.0957488840149637      0.192742772297036        0.00104483580027172      0.000744563688890658     0.00110311703694954      0.000738221598836741     0.00935249852194503      -0.130033487227197      
111700       -0.0756406741465305      0.195548254154779        0.00132614081140186      0.000500278379003136     0.00135030380373458      0.000425747381876729     0.0330757351067998       -0.0739948974275571     
111800       -0.0682644828282978      0.187040642163934        0.00132378468991408      -7.90401886287825E-05    0.00145831969087418      -0.000160515793128369    0.0895518602172517       -0.0448034256247267     
111900       -0.0765424472173234      0.18625996205506         0.001261407795202        -0.000586360711833588    0.00136444738203423      -0.00067134476460684     0.14847271695097         -0.0563028367273043     
112000       -0.083875050601822       0.204394029164866        0.00114911182721315      -0.00104503393004343     0.00104921890353715      -0.00107823820112318     0.180455377746189        -0.0930560140452059     
112100       -0.071376371967957       0.231633416837367        0.000757820075206524     -0.00127871555784835     0.000636743320166389     -0.00154969726902582     0.180810039725205        -0.123926220281799      
112200       -0.0377739123668828      0.246302150132389        0.000124328532304565     -0.00154730401178248     -2.0494403172755E-05     -0.00156428349975357     0.171087181026955        -0.129969330552601      
112300       -0.000579263254970782    0.236509069681107        -0.000343166615235322    -0.00154700956065503     -0.00052421952480497     -0.00152018283505395     0.176068864787279        -0.120023079860226      
112400       0.0220361363074297       0.210672291157759        -0.000785756659505904    -0.00138854283782629     -0.000911152574859742    -0.00126289838989813     0.199315772645941        -0.118575074311273      
112500       0.02795056549506         0.186734723473095        -0.00126093900680931     -0.000860438183836175    -0.00131452924477315     -0.000807865710507727    0.22183876418896         -0.139365117020703      
112600       0.0293910049138908       0.173879146551093        -0.00141157681591925     -0.000426369881682474    -0.00142294540336785     -0.000272487698664392    0.223419386176605        -0.172028331230689      
112700       0.0376362137273207       0.166360220091889        -0.00128273864270517     0.000123762356229677     -0.00132695943154459     0.000232142467321061     0.203606184527124        -0.193672295724035      
112800       0.0520164908443731       0.153222673523112        -0.00103324144807385     0.00042593142858186      -0.00102181827648806     0.000492107559823207     0.182096272550161        -0.19206459613376       
112900       0.0634090475997605       0.130898093518362        -0.000924596443413281    0.000551314315209845     -0.000857900234855435    0.000627705531969225     0.179469186048693        -0.177591965737415      
113000       0.0657005055557668       0.105040691334113        -0.000696755164996071    0.000712013259130825     -0.000671428652788464    0.00076334645059184      0.197262291458717        -0.17321849043139       
113100       0.0611132497045209       0.0816370859234994       -0.000554994992926238    0.000804002857847939     -0.000508038963889845    0.00080465235696181      0.216124912731758        -0.192421207031621      
113200       0.0539101718828719       0.0597591129940689       -0.000364906609251753    0.00081081932574396      -0.000318646882703888    0.00084301795879238      0.213608562644416        -0.226083246438164      
113300       0.0417739593316814       0.0356967706409925       -0.000189702613485958    0.000817067129878952     -0.000123766351535437    0.000848433750284983     0.184473408006011        -0.250604736603279      
113400       0.0176626345255725       0.0131411363233009       -3.85123381783564E-05    0.000840966168692375     3.55067672082043E-05     0.000850072240607957     0.144344813037779        -0.248700456490414      
113500       -0.0183395702920624      0.00478867539098787      9.18256410194974E-05     0.000844220632461653     0.00016426574374151      0.00084446588015652      0.114795737690917        -0.222446133819975      
113600       -0.0519462664616255      0.0201267393003968       0.00016347445260399      0.000841616702957817     0.00022463976708309      0.000820101681160423     0.106154384239546        -0.18769068181777       
113700       -0.0637461898433956      0.0518327137866446       0.000380504567137869     0.000770012748126747     0.000444260849850053     0.000723863489294985     0.114090749059157        -0.158582285777433      
113800       -0.0475035236824926      0.0774021917190655       0.000411478253791323     0.000700274352434156     0.000509003968229393     0.000665419470394557     0.129554286728293        -0.1388411834254        
113900       -0.0187114709521322      0.0773282415867409       0.000440550058554683     0.000598140643420295     0.000547807387526689     0.00052954297233887      0.148602930165294        -0.126027427877047      
114000       -0.00276126269340495     0.0530122099321807       0.000516465500771515     0.000412731146820067     0.000586346308310226     0.000339529655033033     0.171886797654655        -0.120325620021878      
114100       -0.0124836027255045      0.0260934252466692       0.000540893521458308     0.000301208599649497     0.000582572583091689     0.000225808991563881     0.196950784463332        -0.126129229545687      
114200       -0.0366513642302137      0.0183643563612419       0.000419465631495169     8.59752986986235E-05     0.000427430435557596     6.88931637524703E-05     0.214746118149521        -0.144712870871437      
114300       -0.0515099269794302      0.0312126697441386       0.000366172546517802     0.000108952433930493     0.000382758452554199     8.08195418096069E-05     0.216340015292585        -0.167721996342371      
114400       -0.0445423964719129      0.0452204929313149       0.000343244043766423     0.000156152734861233     0.000358876609716674     0.00012397083461213      0.203075541098461        -0.181168547479044      
114500       -0.0265114880227071      0.0406014031065234       0.000378244323298434     0.000174386041221364     0.000395822782958355     0.000187335843076841     0.187860666213305        -0.177657205571208      
114600       -0.0195163759130673      0.0173766593420153       0.000391057780232669     0.000200457223671165     0.000415976647775373     0.000144900302673001     0.184178670678437        -0.163959470606689      
114700       -0.0340158042285202      -0.00549997521503854     0.000527546568725175     0.000111789776200667     0.000573145990163226     0.000109300419515179     0.19344936620922         -0.154771122330623      
114800       -0.0589856491944671      -0.0102249144531643      0.000546031555335149     -1.20985008567035E-05    0.000565466447980612     -2.52071837820722E-05    0.20421675331871         -0.15824110458815       
114900       -0.0745058564968515      0.00235369473345397      0.000491512019156987     -6.87553654683725E-05    0.000517069129264414     -7.7522683824327E-05     0.204455985811666        -0.168141597398376      
115000       -0.0722137480499838      0.015532008923292        0.000590770136988693     -0.000140572567019753    0.000590264418624198     -0.000182633523108322    0.194373736142595        -0.170882141318231      
115100       -0.0619765563190678      0.0152889896666656       0.000453905752660155     -0.000356198520688806    0.000468234255664779     -0.000347385355684793    0.186437337714919        -0.16018527356845       
115200       -0.0590239362579838      0.00397006639734531      0.000329664580962019     -0.000357827086502364    0.000331318786057855     -0.000386542208813956    0.192457045913756        -0.144307212538038      
115300       -0.0667922123657936      -0.00506198535854484     0.000294404001928621     -0.000480053552382853    0.000277866386414694     -0.000495631421114973    0.210862910245624        -0.138204671044782      
115400       -0.0747048292610328      -0.00469823504401259     0.000112891733011676     -0.000596005071917971    8.52329623803882E-05     -0.000615039515619031    0.2273417768807          -0.148421480888569      
115500       -0.0729708421083036      -0.00294012763280965     -8.21808576808235E-05    -0.000573280812269338    -0.00012529890626567     -0.000564239893659391    0.228464375249019        -0.166128717451196      
115600       -0.0667757150972072      -0.0125809724439919      -0.000126544784077509    -0.000484382010964908    -0.000174645378510974    -0.000465569903052909    0.214464512596636        -0.175519906582931      
115700       -0.0722473863986587      -0.0333237524119614      -0.000242521312089534    -0.000263896336055075    -0.000229595788121983    -0.000267308605263139    0.198212470177022        -0.168799065638862      
115800       -0.0973196868256632      -0.0478274568843094      -0.000306377549818204    -0.000207919278402557    -0.000312179111820576    -0.000186677197223872    0.191998074769251        -0.152310024905092      
115900       -0.128921258620146       -0.0383302432151304      -0.000230419598586158    -0.000149461649439194    -0.000208192957562581    -0.000153593479939484    0.196340468196792        -0.138165122498262      
116000       -0.142436060958331       -0.0070072163728982      -0.000212907356018652    -0.00015241534186492     -0.000223331755640821    -0.000125460131789268    0.202100237689962        -0.131147207927985      
116100       -0.125441448185061       0.0224683819133206       -0.000188714137623887    -0.000132723485911947    -0.000204108296935068    -0.000126996842192639    0.202491549042479        -0.124951411712036      
116200       -0.0914169215854134      0.0257422622233658       -0.00018991096004004     -4.17283263643898E-05    -0.000188688639101819    -5.75037845464976E-05    0.201350213375769        -0.111049147914386      
116300       -0.0682423667258359      0.000869717200993012     -0.000254931424238054    -2.46074307673709E-05    -0.000240808185189678    -1.78691766681283E-05    0.208747224186308        -0.0897754888107809     
116400       -0.0718567225190944      -0.0299298122599735      -0.000277487999949203    -2.41173922780129E-05    -0.000271223727284386    3.27326207028023E-06     0.229088783661852        -0.071140427399972      
116500       -0.0912829610298499      -0.0425051977133399      -0.000267484077886299    7.98938715406154E-05     -0.000243476812064713    8.97501553271951E-05     0.255132693255376        -0.0642708981077617     
116600       -0.100543330119027       -0.0350809375943409      -0.000217580573445188    6.99740882076015E-05     -0.000202922785260462    0.00013421526640478      0.27505220805257         -0.0670678199089638     
116700       -0.0857932259345477      -0.0299849218734398      -0.000139213219488513    0.000163935514392538     -0.000116684456830107    0.000173204420566009     0.285325599329912        -0.0679001214014084     
116800       -0.0602257945764598      -0.0509698353199605      -4.03044895640374E-05    2.33363942351938E-05     -5.00339016440421E-05    0.000119191679601727     0.295304364033545        -0.0582802904547277     
116900       -0.0518775787883402      -0.0992682693038664      2.79922684255902E-05     -5.9468755044918E-05     -3.79687475771107E-06    -8.78818310354745E-05    0.317769041033678        -0.0431745523406977     
117000       -0.0773560349445838      -0.15228165352351        -0.000155691804394535    -0.000244178168588267    -0.000206735612092501    -0.000298113028215141    0.35483762665938         -0.0374929464245932     
117100       -0.128126933506284       -0.184907326501437       -0.000517422248376471    -0.000282712482432604    -0.000535667398969153    -0.000290257827732177    0.393928415530382        -0.0516368075041876     
117200       -0.181688078403982       -0.190815009973928       -0.00124649647201173     -0.000255281343215575    -0.0013556340641081      -0.000176910405045305    0.418392471776104        -0.0804223600254319     
117300       -0.224045508057603       -0.182869288521527       -0.00170551489209741     0.00021231177709321      -0.00173399463833945     0.000376832461340015     0.422703818369453        -0.106380189373665      
117400       -0.259764185069587       -0.17478195949717        -0.00193394746595714     0.000500454403729717     -0.00182697556942912     0.000808656111284556     0.417889664630931        -0.114280937172176      
117500       -0.300730282324845       -0.165054799658556       -0.00276276796525732     0.00175079879835867      -0.00274184251515663     0.00187616787745259      0.422751130396838        -0.103404430752242      
117600       -0.347685846412572       -0.140139557802456       -0.00242846218467389     0.00364702861097024      -0.00213652442863044     0.00399618447422334      0.449707797652781        -0.0873682232805651     
117700       -0.385311991818028       -0.0921481286602796      -0.00243430395745541     0.00482462843935407      -0.00207185121046827     0.00508979079317839      0.497510242680626        -0.0837703955890437     
117800       -0.395877421319986       -0.0310340907932091      -0.000445492625181178    0.0066728924026575       6.07474774634298E-05     0.00670821947301192      0.554440449223846        -0.104145863724235      
117900       -0.376134571903423       0.0217949570214276       0.00384145957421207      0.00721480631155557      0.00418031901278937      0.00708357444461782      0.605449187597599        -0.151053684077494      
118000       -0.339625649723845       0.0506429224860884       0.00786879909229306      0.00434074167758713      0.0081024724683223       0.00387267686141435      0.636143638275421        -0.219488753003947      
118100       -0.303827005276675       0.0548110164526357       0.00948871004907643      -0.000107487856019395    0.00947171681102921      -0.000770382871918329    0.634615698341441        -0.296588769403363      
118200       -0.278076679428176       0.0421802991600686       0.00858457594200916      -0.00459824617260209     0.00835007263819976      -0.00498331872189883     0.597064635451686        -0.360453352383823      
118300       -0.265042471382173       0.0181724235837744       0.00569332143880707      -0.00749971704479432     0.00545322688515615      -0.0078104288714691      0.537153528314842        -0.385977051301175      
118400       -0.270165847822514       -0.0145379609186515      0.00226903366993603      -0.00955951679833277     0.00199894772025666      -0.009622833145285       0.488659260385828        -0.361377928851716      
118500       -0.302570547889742       -0.0456019430868098      -0.000797621841320101    -0.00992940412395287     -0.00137392316131102     -0.0100644383541342      0.490588843326481        -0.305250706913231      
118600       -0.361451034290028       -0.0525225965020808      -0.00428596017876373     -0.00893087089589506     -0.0050862353305563      -0.00869875963443434     0.55871533676165         -0.265632218555985      
118700       -0.422882023030331       -0.0153545264153934      -0.00769773506029949     -0.00762145820098881     -0.00844992983528492     -0.00714062097113288     0.665058304143472        -0.292765036844041      
118800       -0.448154092788586       0.0588326669134874       -0.0110025514655676      -0.00421440688305614     -0.0113654760303579      -0.00322855012745471     0.74765697868711         -0.400995333455157      
118900       -0.415011643908          0.128582697774229        -0.0120287961896999      0.00092402403196472      -0.0121670098195139      0.00169990009072407      0.750720746574308        -0.550830667578823      
119000       -0.345518195406068       0.144130627673746        -0.0113635716274656      0.0064278955292232       -0.0111102809666193      0.00695693590779101      0.666987629090717        -0.671104790772088      
