!Keysight Technologies,N5245B,MY49151002,A.19.00.09
!Date: Tuesday, March 11, 2025 11:31:14
!Correction: S11(C  2-Port  ) 
!S21(C  2-Port  ) 
!S12(C  2-Port  ) 
!S22(C  2-Port  ) 
!S2P File: Measurements: S11, S21, S12, S22:
# Hz S  dB   R 50
110000000000 -1.6602715 -18.220161 -61.501736 -99.167381 -61.148613 -116.69077 -1.2058091 -26.52058
110100000000 -1.3257196 -22.597511 -59.612713 -113.39007 -59.314915 -145.96689 -1.6327862 -29.493311
110200000000 -1.1294588 -26.850639 -57.932896 -143.36148 -58.841343 -156.07187 -1.5066941 -29.196825
110300000000 -1.0849528 -31.653149 -58.617825 -164.70346 -59.277241 179.22925 -1.2289129 -33.193031
110400000000 -1.741341 -37.49168 -58.951706 177.49969 -58.34079 161.17487 -1.3059512 -36.779972
110500000000 -1.9155374 -36.491756 -59.140682 163.0802 -60.10458 154.42018 -1.3177953 -40.074066
110600000000 -1.7143738 -37.229275 -61.042522 158.26407 -59.783955 147.33665 -1.1795973 -45.197292
110700000000 -1.3379426 -39.710335 -59.163761 146.05255 -61.215015 140.31862 -1.6028646 -47.064034
110800000000 -1.125042 -45.310604 -60.610977 132.28722 -58.453396 140.13635 -1.5844635 -48.650776
110900000000 -1.2456594 -49.191536 -58.495388 131.00945 -58.767681 117.66053 -1.4330367 -51.653381
111000000000 -1.4344044 -52.516991 -58.319786 109.31158 -58.052662 107.3191 -1.3217943 -54.756485
111100000000 -1.6426454 -54.83427 -57.95422 102.64381 -58.414558 93.038994 -1.3215448 -58.81562
111200000000 -1.6052563 -55.930763 -58.946056 91.99855 -58.543877 80.09938 -1.3779137 -61.88525
111300000000 -1.3983212 -58.086498 -59.174778 65.880669 -60.05949 67.55291 -1.5139673 -63.955551
111400000000 -1.1610739 -61.466507 -57.641956 70.455635 -58.502434 62.078148 -1.507345 -65.933975
111500000000 -1.0488548 -66.171326 -58.499542 57.462681 -58.659229 47.531555 -1.3424439 -69.152184
111600000000 -1.1814528 -70.526901 -58.021496 42.03064 -59.047882 38.914429 -1.2641118 -73.150894
111700000000 -1.3293905 -73.218109 -59.642693 34.072624 -58.184937 29.133123 -1.4470474 -75.835594
111800000000 -1.5148585 -76.34449 -58.949959 28.638432 -58.918957 21.233629 -1.5566946 -76.744728
111900000000 -1.4735577 -77.770241 -58.590496 28.441463 -58.063461 14.192797 -1.3533583 -80.525352
112000000000 -1.2760206 -80.106621 -58.247231 1.4217304 -58.038841 -0.95609117 -1.394068 -83.713448
112100000000 -1.087013 -84.493019 -57.652843 1.4150488 -58.283993 -10.818297 -1.3815368 -86.028748
112200000000 -1.1767153 -88.960182 -58.575642 -22.277534 -58.124256 -25.999296 -1.3621416 -89.274597
112300000000 -1.3669093 -92.821198 -57.07225 -22.178453 -58.174358 -28.149235 -1.3941625 -92.722725
112400000000 -1.5041274 -94.646431 -58.850956 -33.371967 -57.786228 -40.728958 -1.5186836 -94.942551
112500000000 -1.5325545 -96.825394 -57.743362 -37.717609 -57.704655 -51.330639 -1.5940382 -98.475243
112600000000 -1.4749379 -98.917503 -57.336849 -45.865837 -57.9454 -63.003292 -1.5869495 -101.09376
112700000000 -1.1104248 -102.44547 -57.168568 -63.583408 -56.792206 -67.141418 -1.5329105 -104.59368
112800000000 -1.2813336 -107.31766 -56.812649 -72.835175 -56.109455 -77.647095 -1.3886336 -107.52638
112900000000 -1.4226116 -110.50278 -56.260048 -86.483788 -55.687176 -91.601051 -1.382561 -111.20825
113000000000 -1.5146856 -113.50168 -55.56739 -96.653717 -55.816479 -107.15965 -1.5247124 -114.53019
113100000000 -1.5783687 -115.43887 -55.532021 -111.49487 -54.96822 -114.05302 -1.525401 -116.48799
113200000000 -1.5316484 -117.37351 -54.872375 -123.78487 -54.809608 -131.05092 -1.4252326 -118.72147
113300000000 -1.4909254 -120.39327 -54.690536 -140.00603 -54.761757 -146.25461 -1.3434036 -121.67523
113400000000 -1.3896084 -123.54773 -55.099579 -156.61644 -55.245396 -161.8989 -1.3225229 -125.1611
113500000000 -1.4205413 -126.46195 -55.243256 -169.63148 -55.606705 -173.67091 -1.3373389 -127.70585
113600000000 -1.4780633 -129.75623 -55.804222 179.06535 -56.250469 170.79384 -1.3620329 -130.69756
113700000000 -1.5041709 -132.61192 -57.057747 163.56689 -56.789234 158.65527 -1.4732444 -133.28288
113800000000 -1.5526315 -134.25742 -58.21262 152.02238 -57.364429 144.57051 -1.4899896 -135.74513
113900000000 -1.4743824 -137.40979 -58.049179 146.70789 -57.580929 130.98267 -1.4342394 -138.74011
114000000000 -1.3990848 -140.05263 -58.106983 138.175 -58.004456 120.48159 -1.3968918 -141.41295
114100000000 -1.2922566 -143.44235 -59.397079 122.97925 -58.602142 103.60487 -1.4313401 -145.66051
114200000000 -1.5104021 -146.54327 -59.550114 95.909111 -59.97578 92.958435 -1.3671501 -146.94154
114300000000 -1.5404525 -149.62567 -61.782581 76.619141 -61.403881 74.655296 -1.5196366 -149.18042
114400000000 -1.4989204 -152.34822 -64.176682 68.597015 -65.594673 59.692329 -1.7182497 -152.46468
114500000000 -1.4691004 -154.61722 -68.30262 39.150173 -67.580338 44.981266 -1.8295151 -154.80746
114600000000 -1.501974 -157.41008 -85.490807 73.557014 -89.52272 11.198194 -1.8467851 -156.81996
114700000000 -1.4628563 -160.65585 -72.701683 -117.63509 -70.295441 -149.24129 -1.7881117 -160.15756
114800000000 -1.4155143 -163.64679 -64.272552 178.12224 -64.833908 177.14047 -1.8922924 -162.1347
114900000000 -1.4627457 -166.28893 -62.914452 164.20329 -62.316704 153.48216 -1.8478391 -164.4745
115000000000 -1.4059945 -169.32352 -61.696072 142.51563 -60.537739 133.04306 -1.8252561 -166.49994
115100000000 -1.5384489 -171.76843 -59.909714 131.06442 -59.248177 122.74902 -1.7700394 -169.19751
115200000000 -1.61534 -174.07883 -59.04702 114.74519 -59.303146 109.50272 -1.6852337 -171.24913
115300000000 -1.4116371 -177.97977 -58.153706 98.394073 -58.209129 98.11367 -1.5140414 -174.7408
115400000000 -1.4928356 178.62515 -57.66161 86.131821 -57.622025 82.316475 -1.487487 -178.60181
115500000000 -1.5477759 176.13522 -56.749813 73.369469 -57.253105 70.311203 -1.5009985 178.0246
115600000000 -1.5395162 173.74489 -57.242779 64.455887 -57.007412 61.588371 -1.5798272 175.11963
115700000000 -1.5739862 170.84804 -56.990005 49.207043 -56.875965 46.744705 -1.6273705 172.42783
115800000000 -1.6337265 168.10989 -57.683796 37.618778 -57.717873 36.150978 -1.6318086 169.78439
115900000000 -1.6001847 165.48851 -58.320545 29.79274 -57.576664 25.691023 -1.5699214 167.68098
116000000000 -1.5112013 162.20114 -59.857552 19.408327 -58.303043 11.803256 -1.4903792 164.51262
116100000000 -1.4902154 158.90744 -60.749794 6.5980349 -61.114334 -1.8591701 -1.4766825 160.76285
116200000000 -1.5530457 155.73247 -65.018555 3.4946928 -65.516396 -14.874458 -1.596071 157.90501
116300000000 -1.6171556 153.12251 -75.084427 76.624779 -71.64389 59.660343 -1.7537874 155.29684
116400000000 -1.6465235 150.11305 -62.013172 96.879051 -60.945705 90.067749 -1.8451719 153.19733
116500000000 -1.6499218 147.26042 -56.546684 79.677826 -55.80138 71.364304 -1.8840078 151.11697
116600000000 -1.5993743 144.96033 -52.178822 61.974003 -51.746292 58.903709 -1.742691 148.79068
116700000000 -1.5855124 141.44914 -49.511692 48.786392 -49.232056 41.592205 -1.5885669 146.66254
116800000000 -1.6045334 138.2394 -47.818996 32.029449 -47.519775 24.986959 -1.5219697 143.34821
116900000000 -1.6843776 135.0527 -46.925442 15.257463 -46.420292 8.7032881 -1.4997891 139.73706
117000000000 -1.7355988 132.27385 -45.593674 3.2504108 -45.374237 -5.710537 -1.5503923 137.12012
117100000000 -1.7669191 129.35445 -44.568302 -8.236619 -44.416744 -20.159931 -1.4376355 134.10231
117200000000 -1.8625827 126.81361 -43.576626 -22.945415 -43.738987 -31.321564 -1.7369119 131.38499
117300000000 -1.7952605 123.82588 -42.588524 -35.19751 -42.503246 -43.006939 -1.5528114 129.89981
117400000000 -1.8104917 121.32516 -41.48806 -48.585567 -41.35907 -56.674343 -1.3886222 126.68996
117500000000 -1.8840042 117.79693 -40.810425 -61.415375 -40.417992 -71.537613 -1.4577439 123.27225
117600000000 -2.0277755 115.31039 -39.975227 -75.492195 -39.694454 -85.324524 -1.5252943 119.55181
117700000000 -2.1113608 112.24254 -39.055218 -87.612595 -39.060886 -98.945045 -1.1209583 117.8847
117800000000 -2.1492867 109.79142 -38.485104 -104.13674 -38.811535 -110.86048 -1.7226763 112.81512
117900000000 -2.2442758 107.58119 -38.073196 -116.43646 -37.956032 -121.58855 -1.5305554 112.42853
118000000000 -2.2064438 104.6674 -37.451439 -129.43401 -37.391941 -136.39391 -1.4040581 109.35473
118100000000 -2.229332 101.76666 -36.960697 -143.69968 -36.862408 -150.50757 -1.277603 105.40462
118200000000 -2.3500552 99.742157 -36.779354 -157.06183 -36.613163 -163.46078 -1.2413912 101.73183
118300000000 -2.4824593 97.641609 -36.7258 -170.55815 -36.490456 -175.63203 -1.3171853 97.443443
118400000000 -2.4474378 95.716675 -36.695137 179.80655 -36.504707 174.32283 -1.4591115 96.492935
118500000000 -2.3849905 93.720978 -36.656414 170.53644 -36.348022 163.7299 -1.6170518 93.522232
118600000000 -2.2954397 90.30954 -36.233521 161.89145 -36.094929 153.91565 -1.6608342 90.981003
118700000000 -2.2404757 87.595192 -35.938828 153.44049 -35.701805 144.4669 -1.6194137 88.379234
118800000000 -2.2168224 84.444717 -35.409691 144.19926 -35.347809 135.33925 -1.6018089 84.935577
118900000000 -2.2126997 81.151031 -34.820065 134.94652 -34.904671 126.50714 -1.6116959 81.428291
119000000000 -2.178571 78.205635 -34.255066 126.55724 -34.404408 119.08879 -1.7548985 78.159126
119100000000 -2.219996 74.86734 -33.511494 116.98262 -33.618504 111.90955 -1.9201617 75.389992
119200000000 -2.2209868 71.894691 -32.395508 106.75935 -32.629303 103.83134 -2.0696881 73.364677
119300000000 -2.2466252 68.843445 -31.348196 95.507637 -31.421474 93.738586 -2.0445182 71.925659
119400000000 -2.347888 65.907272 -30.445038 82.050125 -30.385525 80.537193 -1.9840465 69.717339
119500000000 -2.3624184 63.148029 -29.702747 68.427795 -29.597919 67.239746 -1.9722804 67.534592
119600000000 -2.4960508 60.82061 -29.168327 55.333363 -29.058804 52.184734 -1.8946186 64.585388
119700000000 -2.5675962 58.366951 -28.708254 42.157932 -28.676666 39.445751 -1.9252428 62.128658
119800000000 -2.5496042 55.840717 -28.401005 28.433245 -28.342699 26.399487 -1.9726859 59.765247
119900000000 -2.5400872 52.645191 -28.096487 16.015112 -28.076633 13.046704 -1.8642213 57.554508
120000000000 -2.6314063 49.366116 -27.834551 2.9392395 -27.799868 -0.071517259 -1.7180417 53.704815
120100000000 -2.6285305 46.729176 -27.622871 -8.9126568 -27.536602 -12.222586 -1.5717027 50.681633
120200000000 -2.693361 44.304092 -27.486427 -20.589891 -27.431295 -24.67281 -1.5000334 46.921837
120300000000 -2.6532609 40.934258 -27.721205 -32.353092 -27.201801 -36.55827 -1.8118967 43.473179
120400000000 -2.8432207 38.269157 -27.303493 -40.126144 -27.317293 -49.448559 -1.4682306 40.76231
120500000000 -2.8755288 36.48608 -27.227377 -50.332241 -27.344055 -58.964634 -1.6939772 37.154579
120600000000 -2.7153218 34.040432 -27.283922 -58.46957 -27.019171 -68.023979 -2.0256588 36.162857
120700000000 -2.7637677 29.893023 -26.448067 -67.73835 -26.581017 -77.631401 -1.3847275 33.317921
120800000000 -2.8080471 26.770567 -26.195784 -77.678093 -26.194902 -87.101349 -1.4872489 29.447531
120900000000 -2.88077 23.64444 -25.910318 -86.954529 -25.880754 -97.879349 -1.7534564 25.45586
121000000000 -2.8983753 20.697102 -25.469015 -97.10894 -25.426991 -106.60129 -1.8452376 22.298447
121100000000 -3.0327888 17.186762 -24.974634 -107.45126 -24.910032 -115.08014 -1.8172781 20.825249
121200000000 -3.1079028 13.351478 -24.450958 -118.29078 -24.357571 -125.25529 -1.9016082 17.44025
121300000000 -3.2223098 9.9512424 -23.872801 -129.52794 -23.790684 -135.52872 -1.9768754 14.002455
121400000000 -3.3472853 6.6583748 -23.311649 -140.10632 -23.273636 -146.564 -2.0992324 11.566612
121500000000 -3.6267066 3.8637078 -22.77936 -150.20615 -22.799078 -159.68771 -2.1456158 8.2094679
121600000000 -3.7354898 1.3648671 -22.12306 -161.92627 -22.155628 -170.95869 -1.9417304 5.54212
121700000000 -3.694721 -2.1651101 -21.853853 -173.18092 -21.603201 175.09917 -2.3033569 2.2155163
121800000000 -4.0401707 -3.5109029 -21.461323 174.44461 -21.36907 163.9136 -2.3660576 -1.1507486
121900000000 -4.0479569 -6.1540236 -20.874363 162.77193 -20.970091 151.55875 -2.2214468 -3.9077415
122000000000 -4.3269076 -7.8123732 -20.724712 151.92792 -20.639977 139.03444 -2.2083106 -6.4949689
122100000000 -4.5023656 -10.225637 -20.763699 139.79274 -20.480366 127.19568 -2.4883013 -9.0013285
122200000000 -4.2948713 -12.82626 -20.244217 128.1635 -20.119406 116.69339 -2.2260232 -11.411764
122300000000 -4.2755361 -16.216873 -19.99614 113.83767 -20.017336 106.0754 -2.28583 -15.798004
122400000000 -4.3171496 -19.082079 -19.927217 102.27204 -19.896654 95.796356 -2.4361401 -18.742914
122500000000 -4.3149915 -21.446253 -19.779594 91.893028 -19.681616 85.072861 -2.5132291 -21.272497
122600000000 -4.3375769 -25.149733 -19.440516 81.712463 -19.493395 73.735695 -2.4562445 -23.928911
122700000000 -4.3922648 -28.832502 -19.344997 70.548729 -19.245544 63.025967 -2.6059501 -27.290115
122800000000 -4.5116968 -33.193394 -19.072849 59.52615 -19.011707 52.654575 -2.5815268 -30.250164
122900000000 -4.7950225 -35.866364 -19.048824 49.037731 -18.849747 42.728706 -2.7673223 -33.687298
123000000000 -4.4817162 -39.751324 -18.553135 42.377007 -18.077646 31.080479 -2.536108 -33.926846
123100000000 -5.0545883 -43.884972 -18.170231 28.189722 -18.41847 18.454662 -2.8105032 -42.658649
123200000000 -5.126174 -47.02169 -17.770367 17.450876 -18.051533 10.982258 -2.9184484 -44.030701
123300000000 -5.5280252 -50.688335 -17.875603 4.9780059 -17.606014 0.74389797 -3.1999364 -48.047935
123400000000 -5.9514771 -53.824734 -17.530384 -4.8672929 -17.342606 -9.8418112 -3.2257302 -49.870422
123500000000 -6.3966255 -56.11861 -17.195097 -16.009562 -17.137634 -20.576607 -3.2944951 -53.350967
123600000000 -6.7234664 -59.107029 -16.981434 -27.412479 -16.799192 -32.700119 -3.4762161 -56.961517
123700000000 -7.0986514 -60.049057 -16.673748 -37.4916 -16.578854 -42.679413 -3.5826724 -59.285091
123800000000 -7.3954964 -60.845013 -16.411331 -48.002594 -16.349096 -53.82877 -3.765511 -62.19709
123900000000 -7.5732336 -63.109528 -16.031824 -61.400253 -16.089304 -64.029526 -3.838033 -65.369484
124000000000 -7.7937999 -64.865654 -16.027943 -73.602638 -15.871424 -75.430946 -4.1220636 -68.086853
124100000000 -7.9523883 -66.142426 -15.715137 -82.58223 -15.760737 -86.419418 -4.1350365 -68.34446
124200000000 -8.0737524 -68.23214 -15.570436 -95.64135 -15.427606 -98.620224 -3.9571705 -73.207375
124300000000 -8.183322 -69.666451 -15.630491 -106.39153 -15.427145 -110.28219 -4.2211094 -76.494568
124400000000 -8.1113043 -71.778534 -15.443315 -116.25028 -15.360914 -121.36599 -4.2692599 -78.158859
124500000000 -8.0525541 -74.217468 -15.273777 -125.99142 -15.232038 -132.56921 -4.238646 -81.085106
124600000000 -7.9884472 -77.400589 -15.263266 -136.93628 -15.040668 -144.41768 -4.3301187 -85.311165
124700000000 -7.8667254 -81.106026 -15.087603 -146.94919 -14.973094 -155.63982 -4.4938436 -88.140137
124800000000 -7.8243108 -85.431709 -14.916895 -157.40215 -14.935786 -166.34538 -4.6657534 -90.942184
124900000000 -8.0459347 -90.137566 -14.685387 -169.20383 -14.788013 -177.92508 -4.4459829 -95.433189
125000000000 -8.1932993 -94.769379 -14.776217 -178.52077 -14.625352 171.77538 -4.6921 -98.235832
125100000000 -8.5051889 -98.381943 -14.737907 172.39362 -14.594918 161.36324 -4.8645554 -101.30688
125200000000 -8.8080006 -102.96815 -14.620834 162.27357 -14.419827 149.99258 -4.9405937 -105.76106
125300000000 -8.9519196 -106.95578 -14.303514 151.15866 -14.298998 141.1068 -5.1295266 -109.43365
125400000000 -9.2849121 -111.76529 -14.126242 139.69247 -14.136095 130.66954 -5.274446 -113.09138
125500000000 -9.6673231 -116.20851 -13.83439 127.82949 -14.040023 120.89476 -5.3673067 -117.51869
125600000000 -10.173133 -120.15215 -13.974689 119.90157 -13.934093 111.95155 -5.9054484 -116.59337
125700000000 -10.828294 -123.44122 -13.984908 109.28954 -13.648561 99.361938 -5.9311285 -123.47211
125800000000 -11.429182 -127.53242 -13.728248 96.704781 -13.635887 90.004143 -6.2133417 -126.90763
125900000000 -11.973691 -130.28036 -13.549598 85.740448 -13.557849 80.255104 -6.6136723 -129.61337
126000000000 -12.660115 -131.66153 -13.369596 74.998184 -13.408904 70.447487 -6.7913065 -133.40881
126100000000 -13.308857 -133.05731 -13.312816 66.231461 -13.255638 58.652569 -7.0522022 -136.22267
126200000000 -13.875149 -134.37907 -13.181635 55.140797 -13.154504 47.510948 -7.2416387 -140.17824
126300000000 -14.277697 -135.32065 -13.106607 45.106411 -13.032475 37.208454 -7.4770427 -142.99225
126400000000 -14.745074 -136.12061 -13.026096 33.328674 -12.999226 27.59597 -7.6590276 -146.13449
126500000000 -14.943133 -136.51088 -12.960565 21.729923 -12.814011 18.192406 -7.7679882 -148.32982
126600000000 -15.252392 -136.50768 -12.918113 11.881715 -12.821504 7.4668193 -7.9169016 -152.12704
126700000000 -15.317939 -137.63664 -12.762259 2.6628101 -12.70444 -4.173224 -7.9734921 -154.53424
126800000000 -15.335614 -139.27834 -12.69886 -7.7332497 -12.564736 -15.170523 -8.1066456 -158.20624
126900000000 -15.493508 -141.35349 -12.643957 -19.050348 -12.699238 -24.713078 -8.3363028 -161.25011
127000000000 -15.556875 -142.44244 -12.530031 -28.143698 -12.530207 -35.572353 -8.3062897 -164.8782
127100000000 -15.568098 -146.1429 -12.525096 -40.509037 -12.530241 -43.839348 -8.551939 -168.01984
127200000000 -15.728333 -149.85075 -12.724578 -51.910465 -12.528929 -53.19273 -8.9030962 -172.22284
127300000000 -15.839554 -153.68367 -12.541107 -59.824909 -12.593764 -62.597775 -9.1351767 -173.24658
127400000000 -16.259472 -157.30807 -12.483777 -70.293968 -12.470769 -71.183678 -9.0915651 -177.72665
127500000000 -16.502375 -161.90251 -12.533764 -80.128838 -12.407114 -82.751816 -9.5163231 178.49045
127600000000 -16.833513 -166.98198 -12.371333 -90.423645 -12.285843 -93.307335 -9.6544914 174.8029
127700000000 -17.401323 -171.81442 -12.382537 -100.94918 -12.250049 -102.92027 -9.9620085 171.60074
127800000000 -17.982361 -175.70428 -12.25883 -111.05532 -12.208822 -113.37733 -10.127656 166.83197
127900000000 -18.631945 -179.99373 -12.245085 -120.03118 -12.178267 -123.92201 -10.459151 164.21419
128000000000 -19.401255 174.95328 -12.218148 -129.75758 -12.153075 -134.21478 -10.823908 160.8654
128100000000 -20.337986 170.57208 -12.169185 -139.06111 -12.180175 -143.82619 -11.140194 157.47664
128200000000 -21.476902 166.60033 -12.122305 -149.37262 -12.08709 -153.73148 -11.391111 153.3869
128300000000 -22.675039 163.33492 -12.225541 -159.63304 -12.090107 -162.47913 -11.863924 149.97873
128400000000 -24.010164 161.30537 -12.058076 -168.19116 -12.044531 -172.84473 -11.950915 147.06174
128500000000 -25.462091 159.20378 -12.036882 -178.96533 -11.952391 176.64986 -12.211905 141.9438
128600000000 -26.882723 159.90674 -12.128996 172.34813 -11.973383 164.96045 -12.63487 137.83954
128700000000 -28.291225 163.57339 -12.153011 164.41695 -11.970171 155.40974 -12.865026 135.16925
128800000000 -29.266836 167.14326 -12.013898 154.68164 -12.018839 145.67949 -13.089734 131.91158
128900000000 -30.18239 172.11238 -12.080918 144.11162 -12.069444 137.29721 -13.413313 128.21367
129000000000 -30.680811 177.62868 -12.099113 133.88004 -12.044834 128.31601 -13.79485 124.95116
129100000000 -31.019236 -178.33908 -11.941627 123.80696 -11.974319 118.30866 -13.851724 120.9754
129200000000 -30.990021 -173.49167 -11.9692 113.23782 -11.998059 109.21563 -14.136917 116.89865
129300000000 -30.889252 -170.4041 -12.003495 104.1023 -11.989642 100.07094 -14.331336 113.33655
129400000000 -30.606079 -169.72865 -11.994848 94.980888 -11.960939 90.623741 -14.540869 109.02138
129500000000 -30.453094 -170.86815 -11.838023 84.023872 -11.911587 80.931107 -14.589328 104.47716
129600000000 -30.692207 -174.31918 -12.04781 75.064522 -11.900844 71.6399 -14.771689 101.21947
129700000000 -30.62495 -179.79588 -12.04157 66.692368 -12.015107 62.275917 -15.267371 98.225021
129800000000 -31.460732 176.57257 -11.922648 58.33519 -11.958972 51.45171 -15.231607 93.050415
129900000000 -32.21949 171.32571 -11.925369 49.874588 -11.933309 41.285282 -15.530455 89.018494
130000000000 -33.110249 166.77728 -11.997608 39.831493 -11.788317 32.10183 -15.92026 84.720039
