!Keysight Technologies,N5245B,MY49151002,A.19.00.09
!Date: Tuesday, March 11, 2025 12:10:04
!Correction: S11(C  2-Port  ) 
!S21(C  2-Port  ) 
!S12(C  2-Port  ) 
!S22(C  2-Port  ) 
!S2P File: Measurements: S11, S21, S12, S22:
# Hz S  dB   R 50
110000000000 -1.9490492 -23.005463 -55.611073 87.239311 -55.636608 82.221733 -1.704231 -24.845549
110100000000 -1.6627227 -26.854254 -55.542782 78.147446 -55.674358 62.487926 -1.8141292 -26.803417
110200000000 -1.494853 -31.559374 -54.277199 59.52523 -54.830437 51.768417 -1.6209339 -28.195959
110300000000 -1.59059 -36.276829 -54.197311 40.685432 -54.527306 31.872696 -1.4525797 -31.85421
110400000000 -1.9968772 -40.663227 -54.057076 27.365526 -54.290466 21.111258 -1.4567794 -35.535591
110500000000 -2.1809134 -40.882862 -55.25325 16.146687 -54.256149 5.4601645 -1.4971892 -39.005302
110600000000 -2.0673342 -42.122581 -53.869045 6.4065862 -54.013538 -8.7113543 -1.5399318 -42.64967
110700000000 -1.7873932 -44.433628 -53.839016 -7.2556553 -53.404659 -21.492325 -1.7331054 -45.239506
110800000000 -1.5453908 -48.821594 -53.640553 -26.28842 -53.132694 -29.437744 -1.7634616 -47.160454
110900000000 -1.5934845 -53.258747 -53.67234 -36.962193 -52.748817 -44.242622 -1.6081063 -49.831135
111000000000 -1.8203722 -57.000095 -52.546303 -53.318306 -53.06237 -62.492973 -1.5124118 -53.193771
111100000000 -2.0727651 -59.209511 -53.433228 -63.772697 -53.264778 -71.24218 -1.5030456 -57.039928
111200000000 -2.0456121 -60.221336 -52.859882 -77.028488 -53.510487 -79.124542 -1.5709323 -60.185482
111300000000 -1.8648167 -62.195896 -52.787537 -83.789551 -52.927971 -90.535301 -1.6740943 -62.266281
111400000000 -1.6604676 -65.440468 -52.702698 -93.486832 -52.646748 -100.90331 -1.6393671 -64.216484
111500000000 -1.590652 -69.885269 -51.782475 -111.39548 -52.274456 -117.87997 -1.453264 -67.329849
111600000000 -1.7171801 -73.779747 -52.271824 -128.5222 -51.976612 -130.20537 -1.3987234 -71.228539
111700000000 -1.9114778 -76.263626 -52.249912 -138.56625 -52.259319 -141.73499 -1.5414464 -74.39299
111800000000 -1.998148 -78.408363 -53.310081 -148.73747 -52.432529 -151.60173 -1.6351026 -76.28405
111900000000 -1.9062194 -80.051491 -52.747566 -159.97214 -51.973637 -161.23938 -1.5547928 -78.913208
112000000000 -1.7389212 -82.714188 -51.596745 -169.06679 -51.873791 -172.56403 -1.5399894 -81.72979
112100000000 -1.5951355 -86.55294 -51.83321 -176.32851 -50.793533 175.35564 -1.5052544 -84.391167
112200000000 -1.6277572 -90.591461 -51.409637 166.60431 -51.342045 161.25975 -1.4609255 -87.546326
112300000000 -1.782883 -94.220802 -51.317997 155.55023 -51.190582 149.03116 -1.4840328 -91.195969
112400000000 -1.9105533 -96.11319 -51.024021 145.71898 -51.234375 139.41429 -1.5658033 -93.674774
112500000000 -1.8992785 -98.124092 -50.805099 129.88091 -50.71233 127.1456 -1.6303819 -96.708496
112600000000 -1.7831804 -100.37992 -50.443115 118.63398 -50.596218 112.66757 -1.640571 -99.457924
112700000000 -1.5913843 -103.87942 -50.586029 106.917 -50.200958 102.50492 -1.6090139 -102.81475
112800000000 -1.6040244 -107.9796 -50.53973 92.3321 -50.41201 89.019485 -1.5268539 -105.97073
112900000000 -1.7020922 -111.21407 -50.167839 79.774315 -50.27721 74.388847 -1.5388569 -109.36198
113000000000 -1.8153758 -114.28501 -50.433533 65.768463 -50.25737 62.723396 -1.6347516 -112.95377
113100000000 -1.8543772 -116.28886 -50.229275 55.576817 -50.457546 53.227264 -1.676962 -115.34811
113200000000 -1.7972765 -118.12635 -50.527798 44.615585 -50.410572 41.091377 -1.6339633 -117.78226
113300000000 -1.7467282 -120.98858 -50.51096 34.000931 -50.320324 29.229416 -1.5955424 -120.78793
113400000000 -1.6821829 -123.94427 -50.084118 19.434147 -49.9921 14.420295 -1.5940076 -124.39252
113500000000 -1.6777359 -126.65626 -50.098587 7.3339448 -49.985847 2.533859 -1.6291579 -127.26149
113600000000 -1.7082042 -129.67613 -50.154919 -5.0453315 -50.226482 -9.3717003 -1.7294822 -130.3179
113700000000 -1.7381474 -132.02861 -50.258801 -19.789022 -50.356182 -25.031502 -1.8594289 -132.78468
113800000000 -1.7654737 -133.68521 -50.829067 -30.734386 -50.559967 -37.709782 -1.9306386 -135.03517
113900000000 -1.6737971 -136.34528 -51.262611 -46.05999 -51.042786 -55.658382 -1.9369451 -137.87708
114000000000 -1.5618325 -138.93523 -52.019104 -60.642258 -51.805843 -69.198792 -1.9579054 -140.23311
114100000000 -1.4745268 -142.00648 -53.196503 -75.234085 -53.116924 -83.159645 -1.9868213 -142.87424
114200000000 -1.5286833 -145.28448 -55.304203 -88.240456 -55.208157 -90.667419 -1.9727528 -144.81055
114300000000 -1.5896299 -148.10722 -57.265163 -85.048424 -57.059361 -89.695595 -2.0859101 -146.77887
114400000000 -1.5737441 -150.56264 -57.596306 -81.642799 -57.536823 -87.04808 -2.1290538 -149.38667
114500000000 -1.5468435 -152.84067 -57.214088 -80.527321 -56.778748 -79.951591 -2.1375988 -151.47012
114600000000 -1.4773034 -155.42506 -55.753551 -76.329018 -55.732834 -84.263664 -2.0635169 -153.89592
114700000000 -1.4036758 -158.47234 -54.378582 -88.651329 -53.694118 -89.818794 -1.9566652 -157.41762
114800000000 -1.3553883 -161.52811 -52.914139 -102.02713 -52.603867 -103.31025 -1.9909282 -160.44119
114900000000 -1.3810607 -164.22928 -52.260712 -114.57637 -51.808044 -115.13988 -2.0227511 -163.20599
115000000000 -1.3671957 -166.95807 -51.453285 -125.23676 -51.302856 -129.04482 -2.0918081 -165.67416
115100000000 -1.4267331 -169.57152 -51.37289 -141.32004 -51.282364 -139.76921 -2.1509311 -167.97893
115200000000 -1.4564123 -172.07402 -51.092834 -154.59395 -50.699032 -156.64716 -2.1174748 -169.86707
115300000000 -1.3209643 -175.13577 -50.464615 -169.44423 -50.386776 -171.68756 -1.9868151 -172.14372
115400000000 -1.3074092 -178.56577 -50.709175 171.93565 -50.506584 169.09996 -1.8909439 -175.25763
115500000000 -1.3241807 178.61186 -50.95874 156.98442 -50.976101 152.62198 -1.8348023 -178.15329
115600000000 -1.3188683 176.06818 -51.604862 142.17415 -51.663883 136.25327 -1.8200455 179.22177
115700000000 -1.3621296 173.23386 -52.615288 120.74981 -52.762794 122.67306 -1.7942966 176.46034
115800000000 -1.3949131 170.55093 -53.720333 110.36478 -53.874897 107.08112 -1.7214699 173.93225
115900000000 -1.3549314 168.17973 -55.289867 95.03981 -55.808872 98.488251 -1.5885714 171.75529
116000000000 -1.2602807 164.97502 -57.037048 98.373573 -57.22757 92.101379 -1.4354234 168.55333
116100000000 -1.2278011 161.72531 -57.984131 86.637543 -57.627171 83.408661 -1.329405 165.01059
116200000000 -1.2895979 158.48978 -59.826813 74.271255 -59.701962 78.827682 -1.3488125 161.74588
116300000000 -1.344871 155.68022 -59.597469 72.214294 -60.10894 70.944717 -1.4136586 158.71774
116400000000 -1.3731347 152.80415 -61.711102 64.941048 -61.941483 59.282326 -1.4481239 155.9866
116500000000 -1.3804418 149.97903 -62.50172 57.922832 -63.136333 54.318165 -1.4225124 153.32504
116600000000 -1.3429208 147.55412 -64.053749 59.150948 -63.511002 43.497711 -1.330055 150.42433
116700000000 -1.3057473 144.2583 -66.87542 39.764637 -67.130661 33.394272 -1.2413074 147.4525
116800000000 -1.3283409 141.19231 -81.198196 73.964966 -72.331093 36.807442 -1.1961292 143.95209
116900000000 -1.3982668 137.85718 -80.06208 -146.68242 -77.530937 -174.36293 -1.2482517 140.14549
117000000000 -1.464541 135.36353 -68.742538 171.86998 -66.785316 169.65164 -1.3526061 137.47295
117100000000 -1.4728788 132.44788 -63.414379 158.67172 -63.129875 158.47171 -1.3446449 134.78735
117200000000 -1.499077 130.00461 -59.834023 153.62311 -59.210094 149.48412 -1.3873764 132.34557
117300000000 -1.4501781 127.11398 -56.394554 140.26093 -56.117081 135.09602 -1.2836641 129.82616
117400000000 -1.4434594 124.24532 -54.213604 135.79706 -54.212345 126.43029 -1.1667776 126.60108
117500000000 -1.4989107 120.6876 -51.950153 120.86225 -51.814465 118.8424 -1.2491616 122.79354
117600000000 -1.6232637 117.86358 -50.348595 111.164 -50.056427 105.63617 -1.3019105 119.25367
117700000000 -1.7071689 115.04925 -48.113247 100.232 -47.967644 95.607697 -1.2639556 117.44299
117800000000 -1.7441235 112.49728 -46.142788 85.612663 -46.115883 81.274338 -1.3875506 113.52077
117900000000 -1.7915179 110.10136 -44.473541 71.380478 -44.419159 68.866486 -1.348188 111.81825
118000000000 -1.7691933 107.28233 -42.782597 56.962273 -42.788643 53.625446 -1.2463566 108.91286
118100000000 -1.7589746 104.19798 -41.507355 40.394428 -41.494846 36.393524 -1.1679342 105.30597
118200000000 -1.8257953 101.48525 -40.520672 23.957661 -40.533588 21.304235 -1.1518204 101.73019
118300000000 -1.9091357 98.565811 -39.838215 8.7638569 -39.737465 6.4830098 -1.2897508 97.970757
118400000000 -1.947696 95.963478 -39.070122 -4.6310887 -39.067341 -6.2485037 -1.4632746 96.123329
118500000000 -1.9593776 93.295464 -38.545696 -16.991213 -38.376114 -20.172094 -1.5614784 93.703629
118600000000 -1.978591 89.818802 -37.775665 -28.847765 -37.627384 -33.526405 -1.594304 91.234772
118700000000 -2.0478303 86.987389 -37.011009 -41.213566 -36.828083 -45.728771 -1.5584009 88.842323
118800000000 -2.159884 83.894096 -36.052822 -53.276543 -36.028481 -58.377266 -1.5491207 85.689384
118900000000 -2.264447 81.01812 -35.217514 -66.513969 -35.059875 -70.074799 -1.5884875 82.614426
119000000000 -2.3681667 78.484047 -34.144295 -80.919273 -34.109055 -83.477859 -1.6663518 79.970123
119100000000 -2.4706542 75.862579 -33.239456 -95.97509 -33.218159 -97.23027 -1.7297548 77.697639
119200000000 -2.5398164 73.678421 -32.35466 -111.80123 -32.407394 -112.3509 -1.6839803 75.52002
119300000000 -2.5824878 71.30764 -31.702604 -128.17419 -31.710752 -126.72688 -1.610494 73.05275
119400000000 -2.639843 69.253326 -31.180487 -144.25206 -31.167622 -142.25856 -1.50938 70.117477
119500000000 -2.6279075 66.966339 -30.859219 -160.33955 -30.770193 -158.55237 -1.4833268 66.760788
119600000000 -2.6230912 64.932968 -30.701595 -175.06491 -30.62352 -174.30544 -1.4976354 63.314693
119700000000 -2.6058879 62.665443 -30.683931 170.368 -30.623796 171.05063 -1.5592192 60.215073
119800000000 -2.535706 60.136024 -30.743498 156.93909 -30.66099 158.02623 -1.6443101 57.412167
119900000000 -2.4572034 57.420437 -30.68515 145.17076 -30.612322 145.37515 -1.6170008 55.071167
120000000000 -2.4460394 54.057491 -30.690979 133.00873 -30.621136 133.09726 -1.5746572 51.629757
120100000000 -2.3923266 51.572285 -30.605408 122.30282 -30.571737 122.0173 -1.5371612 48.56871
120200000000 -2.3568232 48.702721 -30.565437 112.77221 -30.520897 110.96917 -1.5700072 45.050053
120300000000 -2.2715507 44.99538 -30.472641 102.68236 -30.351936 102.56891 -1.8263143 41.604759
120400000000 -2.3201053 41.490871 -29.977749 96.142349 -29.941196 92.137535 -1.8450832 39.684788
120500000000 -2.3674321 38.011139 -29.339266 87.076118 -29.34157 82.526917 -2.0063274 37.453068
120600000000 -2.4081187 34.461838 -28.687649 77.772987 -28.538185 72.296158 -2.1526725 36.006306
120700000000 -2.5774643 30.496801 -27.668043 66.68148 -27.693434 60.459347 -1.8698766 34.39056
120800000000 -2.7933774 27.597078 -26.945259 54.73333 -26.913683 48.245155 -1.8137845 31.754421
120900000000 -3.0098119 24.83717 -26.310366 41.078068 -26.257263 35.07711 -1.8456862 28.433405
121000000000 -3.1946077 22.782787 -25.746361 27.214893 -25.680012 21.264364 -1.8566308 25.211758
121100000000 -3.33687 20.671665 -25.299438 12.499881 -25.226601 8.7863665 -1.8789841 22.738867
121200000000 -3.402194 18.596357 -24.90966 -1.7997572 -24.851299 -4.7419143 -1.8854705 20.100292
121300000000 -3.405493 16.675411 -24.619724 -15.427676 -24.554613 -17.288933 -1.8765218 17.381186
121400000000 -3.3444672 14.51074 -24.374758 -28.357182 -24.31901 -31.100546 -1.8554698 14.375351
121500000000 -3.3091986 12.047331 -24.177883 -40.035522 -24.143625 -44.940578 -1.8119713 11.23886
121600000000 -3.1678123 9.4662666 -23.959152 -50.950859 -23.948006 -57.260662 -1.7573452 8.4611416
121700000000 -2.9697664 6.0177021 -23.882721 -62.753403 -23.727465 -69.242401 -1.9121146 4.8860631
121800000000 -2.9900053 2.7556846 -23.655602 -74.281319 -23.559202 -80.376816 -1.9074321 1.5896008
121900000000 -2.9201179 -1.1287471 -23.231869 -84.816772 -23.26675 -92.09774 -1.823953 -1.7932961
122000000000 -3.0087967 -4.8737469 -22.965788 -94.434654 -22.920946 -103.36371 -1.8087659 -4.6961808
122100000000 -3.1876702 -8.6644201 -22.735365 -106.24329 -22.612186 -114.40654 -1.9224974 -8.1695089
122200000000 -3.2163119 -12.358837 -22.278564 -118.16418 -22.20676 -124.97777 -1.9013616 -11.287495
122300000000 -3.3105638 -15.967589 -21.849575 -131.18915 -21.811884 -134.93445 -1.9711598 -15.188191
122400000000 -3.4513924 -19.457851 -21.446678 -143.01518 -21.41931 -145.72142 -2.1145728 -18.466404
122500000000 -3.6050165 -22.448065 -21.005341 -154.2186 -20.954287 -156.99016 -2.2420466 -21.285578
122600000000 -3.7823937 -25.952431 -20.4928 -165.59523 -20.480558 -169.20325 -2.3221104 -23.850338
122700000000 -4.0226302 -29.151756 -20.08988 -178.07297 -20.03734 178.51154 -2.4755809 -26.98786
122800000000 -4.2773342 -32.023209 -19.666302 168.38014 -19.627836 166.37573 -2.559854 -29.855644
122900000000 -4.5661445 -33.667843 -19.363136 156.18706 -19.280148 154.24812 -2.6819563 -32.644993
123000000000 -4.583077 -35.460152 -19.024723 144.89775 -18.801702 141.38354 -2.7701621 -34.257797
123100000000 -4.8034239 -37.443867 -18.61372 131.38832 -18.621117 127.35062 -2.7705703 -38.804504
123200000000 -4.7763014 -39.032013 -18.313164 118.57333 -18.362106 115.12822 -2.8970096 -41.114639
123300000000 -4.8163605 -41.274654 -18.185026 104.42423 -18.087347 103.67385 -2.9673181 -43.972885
123400000000 -4.8526735 -43.778694 -17.997007 92.423439 -17.90967 91.144737 -2.9567211 -46.159954
123500000000 -4.9041133 -45.825169 -17.829042 80.4272 -17.801952 79.434074 -2.9147477 -49.049404
123600000000 -4.8738194 -48.853497 -17.755589 67.662254 -17.668243 66.668907 -2.9780784 -52.601246
123700000000 -4.8517318 -51.089272 -17.608818 57.446968 -17.531666 55.670406 -2.9965515 -55.670624
123800000000 -4.8238554 -53.887779 -17.451376 46.03796 -17.369984 44.957603 -3.0717385 -59.164677
123900000000 -4.7737131 -57.845589 -17.165396 34.212776 -17.1509 34.073524 -3.1214306 -62.695538
124000000000 -4.8439665 -62.229717 -17.003511 21.208044 -16.929035 23.133987 -3.2229669 -66.468536
124100000000 -4.9930882 -66.393753 -16.770992 10.699121 -16.746078 11.318346 -3.2848241 -68.885941
124200000000 -5.1989188 -70.818932 -16.551456 -1.2880448 -16.514215 -0.93746227 -3.3122282 -72.809616
124300000000 -5.5050583 -74.365608 -16.456047 -12.611189 -16.316818 -12.134004 -3.4994817 -76.270004
124400000000 -5.7608151 -77.85527 -16.211496 -23.668648 -16.098394 -23.603466 -3.6339462 -79.211403
124500000000 -6.0319958 -80.907959 -15.943371 -33.547859 -15.844916 -36.002434 -3.7752762 -81.958641
124600000000 -6.2996898 -83.846733 -15.701447 -45.233669 -15.592394 -48.510242 -3.9837773 -85.360535
124700000000 -6.553113 -86.484985 -15.438951 -56.525028 -15.371118 -60.943943 -4.1870279 -87.899658
124800000000 -6.7938623 -88.766441 -15.214237 -68.603722 -15.187941 -72.672737 -4.3883834 -90.185959
124900000000 -7.0941563 -90.897118 -15.011607 -81.119858 -15.022343 -85.730988 -4.4413171 -93.457382
125000000000 -7.3135557 -92.251579 -14.971805 -92.242584 -14.883284 -98.053329 -4.6272664 -95.682442
125100000000 -7.4415336 -93.20372 -14.872934 -103.96716 -14.803332 -109.637 -4.7472868 -98.093445
125200000000 -7.49681 -94.343521 -14.82876 -114.72689 -14.682021 -121.88971 -4.7946839 -100.65938
125300000000 -7.3045955 -95.876083 -14.609415 -126.5136 -14.57975 -132.4337 -4.816895 -103.22141
125400000000 -7.1393337 -98.373497 -14.523647 -139.58231 -14.489651 -143.8558 -4.8499904 -106.38268
125500000000 -6.9957438 -101.27675 -14.377928 -151.09988 -14.416762 -155.13541 -4.8029008 -109.49398
125600000000 -6.9183536 -104.42873 -14.427597 -161.74649 -14.406967 -165.86949 -4.9683962 -111.35451
125700000000 -6.9179974 -107.83045 -14.475092 -172.88396 -14.353954 -177.35344 -4.9872894 -115.85266
125800000000 -6.9026809 -111.85271 -14.40612 175.07703 -14.343715 172.37648 -5.0607281 -119.52306
125900000000 -6.8484015 -115.58685 -14.301957 163.7664 -14.272257 162.56775 -5.1852956 -123.23837
126000000000 -6.8886209 -119.48173 -14.161778 152.66428 -14.15385 152.15288 -5.2521133 -127.60435
126100000000 -6.9671779 -123.63866 -14.068233 143.31686 -14.010586 140.53586 -5.3812776 -131.61008
126200000000 -7.0796995 -128.44473 -13.936321 132.85152 -13.899024 129.53467 -5.5016422 -136.13359
126300000000 -7.2467084 -133.23366 -13.855042 121.61361 -13.780022 118.96269 -5.6722612 -140.34317
126400000000 -7.5111456 -137.75032 -13.744657 109.92572 -13.689159 108.79981 -5.8440318 -144.40851
126500000000 -7.7718282 -142.13669 -13.668841 98.588478 -13.570273 99.69384 -6.0911498 -148.09666
126600000000 -8.1829739 -145.8878 -13.520271 88.311127 -13.448583 88.974762 -6.2731357 -152.18698
126700000000 -8.561161 -149.73932 -13.305809 78.863503 -13.284293 77.432732 -6.4982634 -155.69604
126800000000 -8.9671392 -153.12778 -13.152674 68.141342 -13.096609 65.591354 -6.7757268 -159.56802
126900000000 -9.4583302 -156.22911 -13.010146 56.613693 -12.988508 55.267246 -7.0540042 -162.86916
127000000000 -9.9170694 -158.2946 -12.888433 45.531811 -12.851439 44.682922 -7.3253794 -165.93555
127100000000 -10.362798 -160.68427 -12.798353 33.566414 -12.767794 34.902859 -7.6437759 -168.97786
127200000000 -10.825075 -162.4261 -12.815541 21.362831 -12.696294 23.925959 -7.9955878 -172.46927
127300000000 -11.199427 -163.22998 -12.669487 11.732397 -12.651759 13.74262 -8.2616768 -174.24385
127400000000 -11.548559 -163.74767 -12.554914 0.3222318 -12.547946 3.9383857 -8.3782187 -176.87279
127500000000 -11.709065 -164.09294 -12.530956 -10.092279 -12.465365 -6.6350808 -8.680007 -179.53056
127600000000 -11.810515 -165.18159 -12.412653 -21.527699 -12.361216 -17.805401 -8.809741 177.62866
127700000000 -11.87204 -166.36583 -12.352588 -32.44791 -12.299269 -28.906382 -9.0239983 174.84464
127800000000 -11.885895 -167.43619 -12.289913 -43.118652 -12.253185 -40.357929 -9.1586742 171.6368
127900000000 -11.861465 -168.85301 -12.249337 -52.799316 -12.205443 -51.003689 -9.3250923 169.18053
128000000000 -11.846184 -171.37283 -12.236006 -63.379417 -12.185584 -62.105728 -9.541234 165.75238
128100000000 -11.863984 -174.14383 -12.205961 -73.242523 -12.155872 -72.993843 -9.7191315 162.06912
128200000000 -11.917779 -177.12047 -12.136492 -83.368172 -12.081961 -83.187263 -9.9110518 158.03317
128300000000 -12.002562 179.63933 -12.13678 -94.674416 -12.046913 -93.012497 -10.201741 153.78482
128400000000 -12.121264 176.62949 -12.048446 -104.59289 -12.022513 -102.94492 -10.401316 150.39024
128500000000 -12.275464 173.12976 -12.002864 -115.53757 -11.965475 -114.14149 -10.634859 145.43965
128600000000 -12.4267 169.87543 -12.034015 -124.31181 -11.932185 -125.92208 -10.971806 141.21687
128700000000 -12.636661 166.86867 -12.042887 -133.11281 -11.912291 -136.77068 -11.284728 137.48215
128800000000 -12.840777 163.23988 -11.930193 -143.52649 -11.902404 -146.98056 -11.59941 133.75737
128900000000 -13.152317 160.23016 -11.918339 -154.77808 -11.891866 -155.9467 -12.004879 130.07716
129000000000 -13.436622 157.18999 -11.906122 -165.33177 -11.843663 -165.21638 -12.491703 126.63757
129100000000 -13.735439 154.18964 -11.798079 -175.77942 -11.790318 -175.74251 -12.864801 123.06276
129200000000 -14.076965 151.75156 -11.785172 173.94556 -11.77622 173.92601 -13.339661 119.83712
129300000000 -14.446074 149.69836 -11.786016 163.71591 -11.753473 163.91231 -13.757462 117.16096
129400000000 -14.755043 147.89453 -11.762326 153.3257 -11.731522 154.50993 -14.161529 114.47663
129500000000 -15.047018 145.65242 -11.684061 142.11354 -11.703516 144.31042 -14.465046 111.93797
129600000000 -15.376866 143.95544 -11.768382 132.13316 -11.674434 134.69049 -14.783887 110.29642
129700000000 -15.501306 142.53516 -11.743311 123.50171 -11.686058 123.6998 -15.141797 108.98112
129800000000 -15.744031 141.26567 -11.670422 114.53141 -11.648251 112.39648 -15.274835 106.5722
129900000000 -15.869731 139.84792 -11.650746 105.10964 -11.627512 102.19095 -15.530715 105.12802
