!Keysight Technologies,N5245B,MY49151002,A.19.00.09
!Date: Tuesday, March 11, 2025 14:13:09
!Correction: S11(C  2-Port  ) 
!S21(C  2-Port  ) 
!S12(C  2-Port  ) 
!S22(C  2-Port  ) 
!S2P File: Measurements: S11, S21, S12, S22:
# Hz S  dB   R 50
110000000000 -1.4219223 -20.102486 -52.418781 154.30846 -52.246048 136.71556 -1.686942 -16.407991
110100000000 -1.1422911 -23.825125 -52.194557 143.32079 -51.785187 127.5372 -1.7844443 -17.929382
110200000000 -0.96003038 -28.645884 -51.001907 133.11267 -51.125832 117.85918 -1.5675172 -19.26469
110300000000 -1.0672512 -33.58168 -50.303448 120.25536 -50.096272 107.26522 -1.353144 -22.718531
110400000000 -1.4239131 -37.511356 -50.431805 102.69371 -50.508633 93.978363 -1.3268393 -26.581554
110500000000 -1.6202964 -38.357864 -50.818783 97.569687 -50.903698 83.273827 -1.3660589 -30.220951
110600000000 -1.5381328 -39.671707 -50.404285 90.541374 -50.078979 77.15873 -1.449075 -33.800453
110700000000 -1.2790704 -41.836483 -49.725029 78.693687 -50.265057 62.844223 -1.604254 -36.517296
110800000000 -1.0161759 -45.879314 -49.142353 71.045044 -49.702564 54.40559 -1.6447706 -38.434559
110900000000 -1.0421723 -50.60973 -49.324398 56.441597 -49.088291 44.686279 -1.5029863 -40.928558
111000000000 -1.2801648 -54.5947 -49.220226 43.060715 -48.840656 34.160778 -1.3790799 -44.324966
111100000000 -1.5441089 -56.882401 -48.735092 29.333162 -48.739239 22.419615 -1.3804244 -48.295856
111200000000 -1.5397502 -57.76556 -48.965214 17.492683 -48.545414 11.74827 -1.4757992 -51.552406
111300000000 -1.3536615 -59.712055 -48.152462 7.1371727 -48.315186 0.52150446 -1.6027703 -53.680271
111400000000 -1.1582698 -62.977295 -47.70916 -2.5875833 -47.612598 -9.2150545 -1.5860028 -55.431553
111500000000 -1.0878659 -67.509857 -47.252804 -14.509779 -47.295219 -24.851112 -1.4003732 -58.352718
111600000000 -1.2299719 -71.520889 -47.391319 -33.248768 -47.16872 -37.081024 -1.3411324 -62.04528
111700000000 -1.4803934 -74.046127 -47.611282 -43.277576 -47.270603 -51.608631 -1.4737616 -65.434059
111800000000 -1.5506002 -75.884628 -47.399456 -57.799896 -47.386745 -62.762089 -1.579879 -67.674232
111900000000 -1.4625481 -77.740112 -47.353996 -68.669403 -47.048817 -72.748047 -1.5969369 -69.890327
112000000000 -1.3077332 -80.462883 -47.2477 -82.531487 -47.305984 -87.973808 -1.5935787 -72.327965
112100000000 -1.1931236 -84.279732 -47.274113 -95.758209 -47.166805 -100.77804 -1.5652586 -74.732849
112200000000 -1.2347193 -88.378471 -47.160789 -111.05157 -46.952389 -114.42155 -1.5264562 -77.46534
112300000000 -1.4100037 -92.115929 -47.413464 -125.64469 -47.51226 -130.65315 -1.5402882 -80.742645
112400000000 -1.5655226 -94.051964 -48.057671 -136.38676 -47.935253 -144.95099 -1.6035308 -83.073631
112500000000 -1.5613689 -95.950615 -48.38456 -148.62155 -48.622486 -155.57506 -1.68325 -85.65834
112600000000 -1.4404846 -98.294601 -48.582417 -161.53673 -48.654049 -168.85948 -1.6892257 -87.930077
112700000000 -1.2888325 -101.66981 -49.274223 -173.57794 -49.230667 179.00902 -1.6578994 -90.68222
112800000000 -1.2568378 -105.81158 -49.741589 172.05022 -49.542027 169.0634 -1.5414329 -93.497581
112900000000 -1.3373579 -109.24335 -50.421257 163.41743 -50.359329 158.18396 -1.4955477 -96.597496
113000000000 -1.426384 -112.44617 -50.956482 150.61075 -50.895004 146.34912 -1.5419065 -100.27018
113100000000 -1.450943 -114.68341 -51.459011 142.03323 -51.204376 138.9614 -1.5763319 -102.59635
113200000000 -1.382557 -116.74093 -51.850426 132.17941 -51.538799 127.14552 -1.5180117 -104.79682
113300000000 -1.3111935 -119.8248 -52.201687 120.14624 -52.207966 119.12785 -1.445931 -107.50178
113400000000 -1.2580035 -123.16273 -52.807304 110.43176 -52.395061 105.84268 -1.3765739 -110.85688
113500000000 -1.2460535 -126.19145 -52.833385 99.630234 -52.937054 94.798004 -1.3517886 -113.64849
113600000000 -1.2927889 -129.5865 -53.063297 91.060585 -53.367237 84.027451 -1.3802017 -116.84634
113700000000 -1.3560065 -132.12221 -53.595619 81.06012 -53.574799 75.597237 -1.4292412 -119.37104
113800000000 -1.39095 -134.15434 -53.868279 74.504433 -54.135605 67.384178 -1.439556 -121.67847
113900000000 -1.3151709 -137.11722 -54.328949 68.975868 -54.400906 56.118446 -1.3976414 -124.71379
114000000000 -1.2323369 -139.94514 -54.871487 54.698257 -54.576332 47.135468 -1.3606261 -127.35191
114100000000 -1.1919153 -143.215 -54.857971 43.83831 -54.569908 38.15036 -1.3231832 -130.25426
114200000000 -1.2245657 -146.50648 -56.029377 33.505497 -55.808079 24.730213 -1.3008026 -132.96503
114300000000 -1.3096638 -149.46948 -55.877899 21.942238 -55.787151 13.772061 -1.3600476 -135.65733
114400000000 -1.3633624 -152.12401 -56.679741 8.6067638 -56.383736 5.1135931 -1.4173329 -138.5545
114500000000 -1.3639202 -154.44046 -56.783958 -1.0813693 -56.40427 -4.1205211 -1.4504329 -140.84378
114600000000 -1.2975421 -157.07999 -57.68441 -8.8314581 -57.380955 -8.902957 -1.4130027 -143.54904
114700000000 -1.2514083 -160.17732 -57.358238 -20.864109 -57.604252 -21.028103 -1.3560281 -146.95287
114800000000 -1.2218367 -163.29114 -59.022255 -31.91029 -59.225777 -39.92207 -1.3700544 -150.10701
114900000000 -1.271138 -166.19392 -60.084366 -40.049728 -58.797523 -47.417976 -1.3960518 -152.98071
115000000000 -1.2944682 -168.77702 -60.247921 -45.719971 -59.98605 -51.37019 -1.4394295 -155.68297
115100000000 -1.3546215 -171.38783 -60.859608 -60.521919 -61.130657 -56.786922 -1.4747739 -158.39128
115200000000 -1.3847221 -173.93272 -63.033993 -62.912113 -63.083622 -60.476025 -1.4593222 -160.93152
115300000000 -1.2733992 -176.87744 -63.770069 -69.183762 -62.038857 -73.62011 -1.3925481 -163.71545
115400000000 -1.2598901 179.70494 -63.06596 -75.295082 -63.25658 -80.578972 -1.3441143 -167.15935
115500000000 -1.2859037 176.81013 -63.401806 -85.7071 -63.330967 -92.460838 -1.3632579 -170.35425
115600000000 -1.3161827 174.25859 -64.416962 -87.640312 -63.875156 -91.044922 -1.4165893 -173.15732
115700000000 -1.3589261 171.42342 -66.784874 -96.706917 -65.456284 -102.34489 -1.4728462 -176.10023
115800000000 -1.4018862 168.85416 -66.088821 -102.97665 -65.236938 -99.900536 -1.4842262 -178.67683
115900000000 -1.3705686 166.48103 -67.165695 -86.100471 -66.955429 -109.88544 -1.4448806 179.18765
116000000000 -1.283638 163.30135 -65.199776 -93.779381 -65.623291 -106.80843 -1.3532491 176.12946
116100000000 -1.2800672 160.04016 -64.472816 -92.134331 -64.5522 -110.98367 -1.3072563 172.93755
116200000000 -1.3402622 156.93454 -65.146858 -108.55938 -64.21347 -112.19865 -1.3642398 169.8614
116300000000 -1.4081484 154.22362 -63.579586 -123.07668 -63.492889 -118.94282 -1.4525483 166.91628
116400000000 -1.4390805 151.49245 -61.420235 -123.63533 -62.097664 -120.48384 -1.5105425 164.30617
116500000000 -1.4546179 148.77115 -60.921818 -144.53172 -60.829277 -144.32256 -1.532177 161.78667
116600000000 -1.4248787 146.30714 -60.065327 -151.31323 -59.73597 -159.6353 -1.4711677 159.26131
116700000000 -1.3865249 143.21844 -59.045414 -174.07408 -59.257412 -173.43407 -1.4111881 156.36041
116800000000 -1.4059645 140.28667 -58.627964 164.35974 -57.99913 157.50011 -1.3777419 152.98828
116900000000 -1.4863729 137.08305 -57.321796 154.98994 -57.447014 144.8734 -1.4569263 149.2972
117000000000 -1.5519702 134.69481 -56.876545 130.14211 -56.827396 125.81669 -1.562716 146.64543
117100000000 -1.5629958 131.80684 -56.22892 108.66139 -56.134018 100.49811 -1.6135569 143.75325
117200000000 -1.5749098 129.58821 -55.729343 84.079315 -55.492805 78.570213 -1.6624308 141.68297
117300000000 -1.5620509 126.81635 -54.7486 58.538498 -53.959568 54.365219 -1.5887781 139.07628
117400000000 -1.5747349 124.01943 -53.877434 43.405643 -53.520645 28.960819 -1.5112661 136.09009
117500000000 -1.6377462 120.83784 -52.084457 7.495501 -51.965477 1.4196187 -1.573384 132.22563
117600000000 -1.7659845 118.13458 -50.720623 -19.617451 -50.670605 -26.399302 -1.6517197 128.90665
117700000000 -1.840156 115.85083 -49.95575 -41.464882 -49.468102 -51.497047 -1.739056 126.54595
117800000000 -1.8729308 113.54214 -48.569649 -67.437874 -48.360928 -74.961899 -1.8085793 123.57348
117900000000 -1.91418 111.4529 -47.374996 -92.842346 -46.994205 -99.954414 -1.8062155 121.60507
118000000000 -1.9010195 109.04035 -45.780186 -119.3287 -45.717651 -124.75922 -1.732757 118.86829
118100000000 -1.878554 106.32978 -44.657276 -143.23129 -44.644032 -149.78169 -1.6857259 115.58652
118200000000 -1.9189008 104.10213 -43.740746 -168.13542 -43.714104 -172.56897 -1.6996011 112.14512
118300000000 -1.9483303 101.68653 -43.261299 167.47209 -43.110291 164.35921 -1.8613343 108.67135
118400000000 -1.9230959 99.739357 -42.500694 147.13753 -42.509785 143.89984 -2.0492406 106.52965
118500000000 -1.8408952 97.464958 -41.78339 128.88103 -41.809547 122.58795 -2.1573439 104.49416
118600000000 -1.7532954 94.44677 -41.179489 109.38707 -40.992905 103.50828 -2.2190878 102.25176
118700000000 -1.6971657 91.682968 -40.274937 91.371796 -40.080147 84.17025 -2.2182014 100.0914
118800000000 -1.6838953 88.418144 -39.251263 71.07695 -39.257412 65.062805 -2.2196414 97.233482
118900000000 -1.6933824 85.333122 -38.522259 51.30698 -38.520031 44.442539 -2.2821255 94.35511
119000000000 -1.7177395 82.441071 -37.871048 30.286753 -37.88139 26.22262 -2.3900788 91.964027
119100000000 -1.734109 79.454384 -37.325504 11.037415 -37.241482 8.2200298 -2.4891264 90.152504
119200000000 -1.7303581 76.62722 -36.701817 -7.6426086 -36.617641 -9.6926632 -2.4606578 88.535255
119300000000 -1.7347852 73.563927 -36.110603 -26.614538 -36.016209 -27.811575 -2.362016 86.4702
119400000000 -1.7702725 70.668823 -35.506775 -45.654015 -35.514332 -45.483509 -2.2125912 84.05938
119500000000 -1.8114697 67.681931 -35.065552 -63.144657 -34.973484 -63.370617 -2.1004159 80.819565
119600000000 -1.8702179 64.929985 -34.578541 -79.873001 -34.499908 -80.67878 -2.044919 77.54406
119700000000 -1.9452231 62.211754 -34.058296 -96.022812 -34.010147 -97.285942 -2.0539262 74.269272
119800000000 -2.0020781 59.458935 -33.477871 -111.95144 -33.421528 -113.63605 -2.0844991 71.263733
119900000000 -2.0418084 56.855 -32.740231 -128.00977 -32.681774 -129.368 -2.0474091 68.785774
120000000000 -2.1183672 53.686573 -32.018932 -144.66417 -31.978413 -147.25247 -1.9765428 65.44603
120100000000 -2.1770294 51.29808 -31.418772 -161.34804 -31.318157 -163.78891 -1.8921139 62.62513
120200000000 -2.2624495 48.87833 -30.771162 -177.97862 -30.744505 178.27519 -1.8524629 59.220444
120300000000 -2.3097055 46.243271 -30.291222 164.65573 -30.267233 160.7123 -1.925171 55.533146
120400000000 -2.3908386 43.772068 -29.902172 149.31099 -29.850643 143.16528 -1.9808263 52.522709
120500000000 -2.4608226 41.458134 -29.46714 133.87119 -29.431974 126.93471 -2.0673387 49.686302
120600000000 -2.4709802 39.14872 -29.052177 118.92886 -28.964685 111.70963 -2.1571746 46.945004
120700000000 -2.4971735 36.455376 -28.456869 104.45207 -28.434479 95.745583 -2.097188 44.34071
120800000000 -2.5483923 34.207291 -27.924877 89.369392 -27.875919 80.530441 -2.1493146 41.32711
120900000000 -2.5679975 31.568735 -27.369598 74.355515 -27.324158 65.18116 -2.2725296 37.788548
121000000000 -2.5875418 28.989363 -26.770536 58.728024 -26.70957 50.174801 -2.4425097 34.671318
121100000000 -2.6099014 26.110525 -26.133904 42.101513 -26.055311 35.40802 -2.619379 32.270969
121200000000 -2.6493707 23.217758 -25.504292 25.693804 -25.42424 20.076927 -2.7194812 30.435665
121300000000 -2.7014427 20.644253 -24.898062 8.8824291 -24.849619 3.6466157 -2.7715433 28.490767
121400000000 -2.7384324 17.965731 -24.414669 -7.66079 -24.35425 -13.22844 -2.7673361 26.198969
121500000000 -2.775562 15.472215 -24.076441 -23.164156 -24.02499 -30.769552 -2.7355914 23.652525
121600000000 -2.730511 13.12172 -23.81917 -38.608315 -23.76687 -46.937531 -2.7179422 21.22818
121700000000 -2.6362174 10.349401 -23.633398 -53.522758 -23.532688 -62.713753 -2.7417853 18.298292
121800000000 -2.6385145 7.2530351 -23.408888 -67.722664 -23.325445 -76.747139 -2.706157 15.380099
121900000000 -2.5972815 3.7345896 -23.013596 -80.850388 -22.993305 -90.71653 -2.6361988 12.185871
122000000000 -2.6526086 0.17164688 -22.6276 -93.830162 -22.571619 -104.72169 -2.6009943 9.0139847
122100000000 -2.828639 -3.4732552 -22.23888 -107.69947 -22.147749 -118.55489 -2.6395092 5.3631167
122200000000 -2.935235 -6.8498449 -21.717293 -122.04962 -21.649641 -131.9429 -2.6807237 1.7245189
122300000000 -3.071156 -9.86166 -21.157629 -137.70688 -21.119759 -144.13261 -2.7850783 -1.7865542
122400000000 -3.2400346 -12.684171 -20.585646 -152.26265 -20.548599 -157.72623 -2.9492207 -4.9653215
122500000000 -3.4040649 -15.025981 -19.990902 -166.79018 -19.938547 -172.29475 -3.1051176 -7.4118147
122600000000 -3.565685 -17.64925 -19.420837 177.91101 -19.377754 172.16814 -3.2505815 -9.6872749
122700000000 -3.7294614 -19.803301 -18.947989 162.12271 -18.902994 156.06172 -3.3600595 -12.033196
122800000000 -3.8551936 -21.707914 -18.560846 146.04614 -18.51812 141.04227 -3.3941803 -14.374975
122900000000 -3.9158344 -23.01219 -18.284805 130.83974 -18.243452 125.68452 -3.4034543 -16.710537
123000000000 -3.788569 -24.792896 -18.047596 115.94161 -17.931124 110.13918 -3.3951011 -19.272987
123100000000 -3.7628274 -27.3564 -17.821272 101.40015 -17.768332 94.941437 -3.3390491 -22.750889
123200000000 -3.6315689 -30.379726 -17.598471 86.892204 -17.584335 80.723129 -3.3517942 -25.939058
123300000000 -3.5998733 -33.96352 -17.400423 72.275543 -17.349525 67.665596 -3.3468838 -29.151552
123400000000 -3.6551549 -37.948223 -17.166483 58.125225 -17.101494 54.084663 -3.3472013 -32.611179
123500000000 -3.8230042 -41.126095 -16.934059 44.934734 -16.880966 40.874325 -3.3692999 -36.282387
123600000000 -3.9847536 -45.082741 -16.663704 31.583195 -16.598255 27.23259 -3.4971046 -40.58939
123700000000 -4.1802101 -47.887527 -16.337671 18.694937 -16.263435 14.27329 -3.6748672 -44.294907
123800000000 -4.4022069 -50.944061 -15.950027 5.5587988 -15.886557 0.96837622 -3.9104633 -47.947437
123900000000 -4.6243291 -54.183571 -15.494192 -8.343648 -15.450581 -12.334392 -4.1588736 -51.134422
124000000000 -4.9446883 -57.325424 -15.092801 -23.850447 -15.029294 -25.699734 -4.412632 -54.131386
124100000000 -5.2976499 -59.761711 -14.729554 -37.466057 -14.684842 -40.635979 -4.6524882 -55.960678
124200000000 -5.6166916 -61.755806 -14.428209 -51.912552 -14.374684 -55.830585 -4.817337 -57.876892
124300000000 -5.870295 -62.752533 -14.24529 -66.583794 -14.134964 -69.749123 -4.9474044 -59.314102
124400000000 -5.92664 -63.697819 -14.045358 -80.757545 -13.949952 -84.514725 -4.973505 -60.60704
124500000000 -5.8376889 -64.77919 -13.892924 -93.814568 -13.802644 -99.357368 -4.9328966 -61.979118
124600000000 -5.6438823 -66.923691 -13.760309 -107.30726 -13.682383 -113.49117 -4.88445 -64.1633
124700000000 -5.4298992 -69.958496 -13.63672 -120.45591 -13.584245 -127.56432 -4.8161616 -66.455582
124800000000 -5.2629547 -73.768669 -13.514155 -134.15454 -13.483786 -140.52211 -4.7639747 -68.977615
124900000000 -5.2322264 -78.230225 -13.426593 -147.23056 -13.398803 -154.19159 -4.6914024 -72.79744
125000000000 -5.2649083 -82.39753 -13.372172 -159.12997 -13.297541 -167.23038 -4.6982799 -76.57592
125100000000 -5.3685784 -86.547562 -13.258613 -171.22774 -13.199296 179.75887 -4.7799397 -80.597687
125200000000 -5.5154557 -90.6903 -13.115226 176.51974 -13.000182 167.49324 -4.9054389 -84.654541
125300000000 -5.6321397 -95.206291 -12.814147 163.96165 -12.769971 156.43271 -5.0870008 -88.478752
125400000000 -5.8813605 -99.772026 -12.555835 150.73267 -12.500064 144.15765 -5.3315945 -92.609222
125500000000 -6.2189574 -103.85904 -12.266713 137.80193 -12.244958 131.46843 -5.610301 -96.043709
125600000000 -6.6637869 -107.38116 -12.050735 125.0873 -12.022754 119.2592 -6.0084119 -98.689079
125700000000 -7.1712799 -110.13843 -11.85068 111.62022 -11.796262 106.38722 -6.4156466 -101.94378
125800000000 -7.6900406 -112.14389 -11.658931 98.36985 -11.589223 93.772751 -6.8428988 -104.04139
125900000000 -8.0989447 -112.75179 -11.434179 84.829018 -11.394958 81.770622 -7.2178273 -105.37017
126000000000 -8.3836451 -112.85059 -11.231048 71.531952 -11.195287 68.525726 -7.4541993 -106.70358
126100000000 -8.4765635 -112.7298 -11.068006 59.650024 -11.021575 55.044724 -7.5930367 -107.83832
126200000000 -8.4265795 -113.504 -10.949455 46.517117 -10.90953 41.634624 -7.6108332 -109.41331
126300000000 -8.261034 -115.08757 -10.871563 33.246548 -10.827087 28.663733 -7.5446072 -111.18343
126400000000 -8.1108103 -117.11754 -10.831787 20.106695 -10.782621 16.766878 -7.4133215 -113.19261
126500000000 -7.9066844 -119.92322 -10.810219 6.65271 -10.75088 5.184413 -7.2551546 -116.03896
126600000000 -7.7697687 -123.07227 -10.789135 -5.2565198 -10.727478 -7.2042308 -7.118187 -119.41869
126700000000 -7.6211071 -127.15771 -10.710405 -16.316992 -10.655361 -20.034575 -7.0336814 -123.19775
126800000000 -7.5402946 -131.50058 -10.610428 -27.583355 -10.56108 -32.079113 -7.0199318 -127.52201
126900000000 -7.5671577 -136.29933 -10.508895 -39.803989 -10.48549 -43.752388 -7.0867987 -131.65848
127000000000 -7.6741433 -140.90727 -10.415876 -51.533913 -10.365568 -54.854362 -7.1992984 -136.18303
127100000000 -7.8371086 -145.9395 -10.311553 -64.186234 -10.279679 -65.944954 -7.4028606 -140.82755
127200000000 -8.140214 -151.08806 -10.254743 -76.979973 -10.181123 -77.315895 -7.7102551 -145.90712
127300000000 -8.5290318 -155.27893 -10.124125 -87.935562 -10.098806 -88.433746 -8.0914183 -149.754
127400000000 -8.9998503 -159.25166 -9.9719324 -99.943558 -9.9454594 -99.153763 -8.4740753 -153.41632
127500000000 -9.5049782 -162.52419 -9.8207808 -111.6589 -9.8020515 -110.1326 -8.9690332 -156.64691
127600000000 -10.025466 -165.4444 -9.6761961 -123.86337 -9.6426296 -121.47915 -9.4354715 -159.48679
127700000000 -10.570812 -167.47829 -9.5420599 -136.09155 -9.5149488 -134.47588 -9.9562693 -161.40131
127800000000 -11.053558 -168.40785 -9.4355164 -147.68242 -9.3967762 -146.88924 -10.422126 -162.64653
127900000000 -11.456147 -168.47791 -9.3555107 -158.39082 -9.3172045 -159.01167 -10.847744 -162.63371
128000000000 -11.726077 -168.48247 -9.2868767 -170.19537 -9.2396154 -171.33086 -11.177949 -162.79103
128100000000 -11.837515 -168.31909 -9.2362204 178.63597 -9.1759291 176.30995 -11.327998 -162.97984
128200000000 -11.801567 -168.45285 -9.1757135 166.99913 -9.1073351 165.04422 -11.370783 -163.46399
128300000000 -11.648256 -169.54445 -9.1414738 154.53462 -9.0806007 153.93063 -11.348538 -165.09807
128400000000 -11.450677 -171.20676 -9.0940189 143.89186 -9.0492105 142.87859 -11.244654 -166.70062
128500000000 -11.28807 -174.03862 -9.0488634 132.7074 -9.0137281 130.56975 -11.098176 -169.7684
128600000000 -11.093241 -177.17973 -9.0610523 122.37075 -8.979763 118.13695 -10.961307 -173.23058
128700000000 -10.965201 179.22942 -9.0563078 111.34808 -8.9744043 106.5024 -10.879324 -177.27403
128800000000 -10.850928 174.80875 -8.9973173 100.62769 -8.9558659 95.984154 -10.851258 178.46649
128900000000 -10.867002 170.19685 -8.975975 89.684135 -8.9363451 85.409744 -10.94966 173.82745
129000000000 -10.945808 165.52805 -8.9342661 77.487167 -8.8917885 75.475136 -11.128453 169.05507
129100000000 -11.116915 160.59201 -8.8745718 66.700035 -8.8404226 64.529747 -11.369081 164.19014
129200000000 -11.35242 156.07889 -8.8202906 55.87627 -8.7869072 53.936745 -11.703519 159.31752
129300000000 -11.685181 151.66664 -8.7886543 45.353302 -8.7456732 43.281898 -12.091819 154.61034
129400000000 -12.030972 147.44084 -8.719923 34.023926 -8.7046509 33.134182 -12.569827 149.78212
129500000000 -12.470838 143.11121 -8.6522284 22.170559 -8.6408234 22.601862 -13.078732 145.25443
129600000000 -12.961383 139.54346 -8.6516562 11.471365 -8.5743628 11.763002 -13.674439 141.77299
129700000000 -13.457356 136.8958 -8.577714 1.9387772 -8.5322027 0.26783571 -14.32071 139.1707
129800000000 -14.014183 135.05728 -8.5172424 -7.596539 -8.4802132 -11.903537 -14.927298 136.93439
129900000000 -14.472737 133.92377 -8.4627762 -17.825686 -8.4160299 -23.005381 -15.576816 136.29485
130000000000 -14.896584 133.50899 -8.4308624 -29.034929 -8.3812399 -32.94949 -16.194101 136.81221
