!Keysight Technologies PLTS 2023U1(64 bit), Build 20230630.1
!Deembedding/AFR applied
!FILE: C:\Users\jaha\OneDrive - Nokia\Project\Deacon_v3\Measure\250307 MPW12 GapWG\GapWG_Line3.s2p
!$DUT_CFG_DESC: Default 2-Port Configuration
!$NUMBER_PORTS: 2
!$DIFF_PORT_MAP: 1|1P|2|1P|
!$PORT_MAP: 1|1|<<<<<<|2|2|>>>>>>|
!Date: Thursday, March 20, 2025, 10:14:04
!S2P File: Measurements: S11,S21,S12,S22:
# MHz S  RI   R 50
110000       -0.193740165262909       0.275320676005942        4.57432553279351E-05     -2.7631422577459E-05     3.67655326765706E-05     -4.17870039277207E-05    0.210610740778222        0.429384634503024       
110100       -0.146202011975728       0.26758358914549         4.37924416643165E-05     -4.28341657423862E-05    1.43221086910776E-05     -6.17556638187744E-05    0.0459870381752161       0.396240912271132       
110200       -0.077563007328484       0.237166253836724        1.02909226556402E-05     -7.89613014263298E-05    -6.60620944832515E-06    -7.14166020322573E-05    0.047954825250284        0.439921930645226       
110300       -0.0421507868826749      0.17621443707102         -2.49282291633115E-05    -6.00067902084442E-05    -3.75968873190802E-05    -4.70522661337736E-05    0.131335798127253        0.41981653479068        
110400       -0.0603542975733659      0.125214819060019        -3.4767813099061E-05     -4.72949968260626E-05    -5.00598513619721E-05    -3.82108063513575E-05    0.174295262938314        0.324818718013147       
110500       -0.103667753673625       0.121533212000949        -5.57860107912764E-05    -3.18514810192777E-05    -5.36493788039216E-05    -2.06634358987934E-05    0.121515263629232        0.24299833497547        
110600       -0.123059607642486       0.158951216842344        -4.30618785829106E-05    -1.06725318132173E-05    -5.12122100024825E-05    -2.67708905976605E-06    0.0298281001186066       0.258624556313671       
110700       -0.0988456872960796      0.190502273217955        -5.65372966755078E-05    7.51989744313516E-06     -4.38283003898476E-05    1.03688444925698E-05     0.00550949525770862      0.353010656583521       
110800       -0.0633952082689371      0.177232760624638        -3.75544412310786E-05    1.81512925740611E-05     -5.08705420401157E-05    1.64767056660686E-05     0.0787896584172133       0.412941091255787       
110900       -0.0640589150097799      0.13370191759292         -4.6845759687081E-05     2.52083419040907E-05     -3.85328729439749E-05    3.42522625889075E-05     0.15451645893936         0.360467471675749       
111000       -0.103383562135267       0.110161692414056        -2.78260755204528E-05    3.87865168602674E-05     -2.72871188684576E-05    4.09713795903599E-05     0.123172396081094        0.257391910941641       
111100       -0.135754062744154       0.12750296825516         -1.78031719149331E-05    4.63795669133778E-05     -9.30846106683703E-06    4.61860936766811E-05     0.00529763023172288      0.232923528579121       
111200       -0.128198266808633       0.152585634836516        -3.27451023405636E-06    4.15493625649384E-05     5.61707142310297E-06     4.32904827221137E-05     -0.0703835043645086      0.318438648275661       
111300       -0.101168136893075       0.146049261378562        1.73632680073248E-05     3.34517723510412E-05     1.47934660077453E-05     3.06570409520646E-05     -0.0277588599754306      0.41161591349647        
111400       -0.0978422205210057      0.113653218792881        2.09196024374112E-05     3.67106055139967E-05     2.35884252646201E-05     3.013299254917E-05       0.0704559143867433       0.407065392211092       
111500       -0.128156671445506       0.0964918146537719       2.56096420757803E-05     2.44659121670739E-05     2.89089991056812E-05     1.93240112444926E-05     0.106181037580626        0.31859150646367        
111600       -0.157198475613753       0.118046616943778        3.11823189042648E-05     1.55880229774961E-05     2.84189477977037E-05     1.23240318146145E-05     0.044341542224481        0.254328901667087       
111700       -0.148701248369216       0.15325829964075         2.67978317363587E-05     7.74050696717987E-06     3.23653285008163E-05     6.39193651608139E-06     -0.0329031326871822      0.285997431002161       
111800       -0.111711946009511       0.156393778440572        3.60401653691391E-05     3.45269321358908E-06     3.63139641628152E-05     -1.22527706025721E-06    -0.0292289674296436      0.364609750947841       
111900       -0.0937106551745204      0.117132703089446        3.40519445146983E-05     -1.04116351386749E-05    3.23460784876772E-05     -1.9628134452887E-05     0.0458585609242435       0.381186864364386       
112000       -0.123828663297178       0.0771152999467859       2.04949757809806E-05     -1.88631126517572E-05    2.01729442892429E-05     -2.01754700412948E-05    0.0862852863968553       0.304248739751838       
112100       -0.174216242235166       0.0815456764017582       2.06315419581391E-05     -2.56533624283707E-05    1.36950878868447E-05     -2.73790090936643E-05    0.0237017361886253       0.223653090122374       
112200       -0.191570309473617       0.123137846044596        1.26008915130674E-06     -2.46420927551101E-05    -3.60368625607066E-07    -2.59879608925928E-05    -0.0816132329345408      0.238602834197557       
112300       -0.161891082286205       0.150418130777211        1.93727915756379E-06     -3.33547400103243E-05    -1.35898197939355E-06    -2.93981447256897E-05    -0.113865177955079       0.331067533957856       
112400       -0.126944352490094       0.1306288669029          -7.85008179065745E-06    -2.32086004174592E-05    -1.21602215603644E-05    -2.48829757190094E-05    -0.0458748666661921      0.387691850886826       
112500       -0.133081082528718       0.0885764585941343       -1.31113790003954E-05    -2.41369549591256E-05    -1.85062834585636E-05    -2.0463942902893E-05     0.0280935353764563       0.339907850645809       
112600       -0.176265906034432       0.0756774979283952       -1.89073893537928E-05    -1.42719823198995E-05    -2.07662619260418E-05    -7.52112408264338E-06    0.00754565598501394      0.247130429287296       
112700       -0.208052928864279       0.108283208025297        -2.34577614946558E-05    -5.86846333786202E-06    -2.48296366933687E-05    -4.59628986604343E-06    -0.0931407038016105      0.22495267978333        
112800       -0.193952333811333       0.148187536529805        -2.37157230012594E-05    9.12317410556522E-06     -2.47950954346265E-05    1.20147783420066E-05     -0.161396972010511       0.305702401449558       
112900       -0.155240227071861       0.148256883540689        -2.24289908659132E-05    1.32342054650487E-05     -2.26017661235645E-05    1.62170744868462E-05     -0.121987626623156       0.397176558569583       
113000       -0.143704931537556       0.109798963359548        -1.46675578649008E-05    2.31197277589408E-05     -9.91755440082898E-06    2.46883450181201E-05     -0.0305956041143399      0.392469295477675       
113100       -0.177987734401427       0.0818182715405844       1.72249066902014E-06     2.33182068615284E-05     2.94674008749496E-06     2.47751623820847E-05     -0.00816890236439356     0.301825316159541       
113200       -0.219461585803313       0.100902792393129        3.62251284449148E-06     3.69327296347268E-05     8.32449637933053E-06     3.64403600094931E-05     -0.0913614241604107      0.24234321558573        
113300       -0.219229193369173       0.145436064141355        1.81923798103547E-05     1.90078718086405E-05     1.9988586220876E-05      1.67767191143753E-05     -0.185009098843253       0.293590548118836       
113400       -0.178499052570667       0.161716209435513        2.71593909437054E-05     6.55437902574655E-06     2.71872108150717E-05     3.95906702976845E-06     -0.178575709600007       0.398343773408964       
113500       -0.147524370965417       0.129459961181631        2.39441921161697E-05     -3.18075277980914E-06    2.26910292049354E-05     -4.66040543045665E-06    -0.0820097356129647      0.432147625370499       
113600       -0.165339680933768       0.0862179626437094       2.16421902412638E-05     -7.89154755690703E-06    1.92660630560226E-05     -1.03759819793936E-05    -0.0142169862340275      0.35450255850043        
113700       -0.213870844958441       0.0823684699613172       1.25592266650701E-05     -1.68805863696939E-05    1.14153002677142E-05     -1.84557143043662E-05    -0.0605305106824973      0.257629659181045       
113800       -0.240470123448446       0.121732800988986        3.90718201495853E-06     -1.95335351537112E-05    1.47835261543605E-06     -2.1914072657836E-05     -0.171485236332444       0.256056605120861       
113900       -0.22087259646577        0.158474371439589        4.23591913837532E-06     -2.02799803577969E-05    -1.4975813513729E-06     -2.18138202185969E-05    -0.223224300848193       0.349984316830634       
114000       -0.186931873020082       0.153469659003168        -3.93667806406723E-06    -2.09718785430994E-05    -1.0244519685898E-05     -1.90064153997582E-05    -0.167225872178505       0.426446794337526       
114100       -0.185477359277276       0.121698776928423        -8.05576739437284E-06    -1.64069448484193E-05    -1.42923813086782E-05    -1.40326843620642E-05    -0.0882107852675469      0.398320027797081       
114200       -0.218786386090272       0.111897182788829        -1.8862038405341E-05     -9.26967000003149E-06    -1.83904942900881E-05    -7.89013324720145E-06    -0.0974095867919505      0.311737575251744       
114300       -0.241605235435657       0.143261812461386        -1.91485883419975E-05    -9.29823911446477E-07    -2.00234593137338E-05    -2.85247125475507E-07    -0.192269350259336       0.287124332880022       
114400       -0.219521952045923       0.179359202816399        -1.4839156506148E-05     4.25430435876683E-06     -1.18927840269123E-05    5.52094894601396E-06     -0.259327958929661       0.366322365298455       
114500       -0.174997415749275       0.173419673599793        -7.55071592231599E-06    7.59333469016377E-06     -9.00133703396477E-06    7.37542207218667E-06     -0.217722552766456       0.458584424253847       
114600       -0.161911001747258       0.128654193189458        -1.69953343915275E-06    6.2201338881891E-07      -1.49268686300275E-07    1.12787301986828E-06     -0.122764350920057       0.454044893378914       
114700       -0.199009339104911       0.0975113081624496       6.71677758989915E-06     -5.64067413535525E-06    3.64671126362737E-06     -1.09812026209966E-05    -0.099149148063709       0.362925723412653       
114800       -0.244401512528485       0.118911129548211        -5.58891395701252E-06    -2.58617737766306E-05    -5.65375655980915E-06    -2.41499035951165E-05    -0.185361413518486       0.306531553869425       
114900       -0.244349480039514       0.169192110399923        -2.22537135730835E-05    -3.384192475567E-05      -3.01670582203428E-05    -3.11852904815169E-05    -0.281620137647203       0.368037537161843       
115000       -0.199230192899239       0.188288139861597        -4.40286682523968E-05    -1.96704212461949E-05    -5.33228492258786E-05    -1.38903563779991E-05    -0.270004298549975       0.485046159962022       
115100       -0.16552543677078        0.152677761399168        -6.38609124092723E-05    -5.82958429054925E-06    -6.91000192034608E-05    3.74180801188118E-06     -0.163475981572587       0.521160877082656       
115200       -0.187480944842579       0.106632308486974        -7.45119459446804E-05    3.54280103321271E-05     -6.89011920975702E-05    4.0865069960816E-05      -0.096314674989972       0.435829607513568       
115300       -0.240058033261573       0.109686895554392        -4.68948890530549E-05    6.50767666125928E-05     -4.62796005109567E-05    6.48901126414358E-05     -0.158447746169243       0.341426606480046       
115400       -0.256144327439454       0.161266817763874        -2.60191164759498E-05    8.14428780094423E-05     -2.06359795527078E-05    8.33728144797874E-05     -0.276628808165304       0.367098230541303       
115500       -0.209128322976004       0.196182730348231        6.06621853271668E-06     9.94078059005086E-05     1.07215353750689E-05     9.33724302498717E-05     -0.298202667688174       0.492173461391509       
115600       -0.150797992779981       0.160916478935279        3.48021153056551E-05     9.23265871172421E-05     4.04589544586997E-05     9.29549863499801E-05     -0.182832076906322       0.560388728782745       
115700       -0.155321210988337       0.0809119819180416       7.66314927205812E-05     7.82201336062501E-05     8.09775160064419E-05     7.58449020352714E-05     -0.0655782569169011      0.467762106035178       
115800       -0.232865840221758       0.0367652195722344       8.84612509923508E-05     4.91245397703215E-05     8.93393668377485E-05     4.6659058320131E-05      -0.10462373847237        0.298845910150567       
115900       -0.314852541669928       0.0743105975083052       8.74102475830008E-05     2.59935872310193E-05     9.70077799706814E-05     2.14340418551728E-05     -0.289819676436338       0.239477804233529       
116000       -0.330206110729511       0.153003530415819        7.32019966879079E-05     5.84536013352639E-06     8.77035547546257E-05     -4.65705539909322E-06    -0.445101724001851       0.360714052908312       
116100       -0.284305606235954       0.194079373079406        6.38728935296686E-05     -7.16034083408345E-06    5.95718710769688E-05     -1.57991196374496E-05    -0.432073376549878       0.531899753579416       
116200       -0.246930272969233       0.172095298710067        3.78913242303044E-05     -7.98195000236334E-06    3.15821404797134E-05     -1.84290946663168E-05    -0.314277138545552       0.576224056618628       
116300       -0.263543590883207       0.139296952444753        6.16298208876166E-06     1.15121129729922E-05     1.37513857225713E-05     1.36906969601114E-05     -0.276215682259153       0.486801011771158       
116400       -0.299676635299154       0.15202760350128         1.60595139495103E-05     6.16506531716029E-05     2.62993085016205E-05     6.70668141538044E-05     -0.387836016050016       0.433521317478542       
116500       -0.290750153785874       0.191127032277084        6.76770358092364E-05     0.000102305774368526     8.90833771904909E-05     9.96383746496576E-05     -0.508820369065674       0.540743889235523       
116600       -0.237868076933086       0.181272128842689        0.00017570785637612      0.000128866276001688     0.000191668607264717     0.000125359837369388     -0.467270535442087       0.710856036890802       
116700       -0.225462100631267       0.0936712592191107       0.000326165295244275     0.000133140229977407     0.000351404054782734     9.42309349767356E-05     -0.300749890915164       0.731337592105154       
116800       -0.325414609610847       0.0063639168626776       0.000461288768048389     8.48732493682382E-05     0.000484625097939784     2.86464828107569E-05     -0.245917671710597       0.555267429260899       
116900       -0.493789448123229       0.034945461010246        0.000584426010185007     -5.63793361924035E-05    0.000608553628481445     -0.000130067416037605    -0.455354088596864       0.40664002225178        
117000       -0.590794672664009       0.197164754525169        0.000816726242524818     -0.000251796222419286    0.000787175591284495     -0.000385555790956005    -0.771415455644537       0.54320120278811        
117100       -0.523373025204134       0.365510096776252        0.0008923491216352       -0.000606030770429115    0.000761053603415718     -0.00079099927680204     -0.86318710104527        0.92636796654484        
117200       -0.363737016863364       0.380353299506427        0.000985111807263948     -0.00109592736503247     0.000799866498795154     -0.00120500323247086     -0.617748925482598       1.20918602344352        
117300       -0.304552394190481       0.220859265293566        0.000403672714461315     -0.00205252862519221     0.000122228266363322     -0.00210894723926458     -0.332066927956386       1.12146048325306        
117400       -0.478025312615473       0.0542907613414133       -0.000691358419427548    -0.00242054931321736     -0.00104040559784835     -0.00233358762493197     -0.418911065601336       0.841588179190939       
117500       -0.815361824597096       0.101052163109775        -0.00251557751509501     -0.00303789449431279     -0.00314945652955245     -0.00266628327291585     -0.896648642488976       0.882465129400255       
117600       -1.08735568795178        0.441979097063911        -0.00586835754442404     -0.00408782392657449     -0.00669311735869371     -0.00312507105418547     -1.25137374785364        1.53238186344777        
117700       -1.08356508308944        0.94915806152071         -0.0149552122128162      -0.00351325325737963     -0.0153439817844969      -0.000505705568350834    -0.912594911815392       2.43939482739287        
117800       -0.759277872240984       1.38802823279545         -0.016195096479721       -0.00357296584795287     -0.0158933743649214      -0.00159129210874909     0.102765595850857        2.85489333578868        
117900       -0.236961732224168       1.57422865904298         -0.0165354130781813      0.133819950371314        -0.00451205664863608     0.136594322856737        1.08406456731784         2.37087443015894        
118000       0.293372388333246        1.45002696758653         0.036075748575975        -0.00389536721567883     0.0355807880352188       -0.00829475394678525     1.25861064565115         1.41016154369796        
118100       0.657871744863648        1.0661078748312          0.0140633480679669       -0.00484527533005024     0.0135422067798885       -0.00655191458429272     0.580878466208645        0.90731984789452        
118200       0.725709517218868        0.55171686118899         0.00735149404627804      -0.0186358961572324      0.00532971636233093      -0.019712709789701       -0.133161766124622       1.42021559090126        
118300       0.440944464834427        0.114727984242385        0.0221013226106397       -0.0349797806138181      0.0194407743537539       -0.0378080111890284      0.0696570900071057       2.53170559109389        
118400       -0.0981198628052511      0.00555946125459402      0.216302239223402        -0.285153297283914       0.19223084553883         -0.311268747028379       1.36233971513139         3.16877878225228        
118500       -0.5928955312938         0.374211142713113        0.285591384915196        0.0964128338752209       0.305667424251808        0.064122516297239        2.92600738310355         2.5702597390026         
118600       -0.662657153161571       1.09188494350955         0.0590786363284047       -0.0608225465469513      0.0508730205286412       -0.0695322942280292      3.66398192688415         0.978435481188551       
118700       -0.119041665779687       1.73218652491005         0.0275765992348703       -0.092045513010434       0.013238252034725        -0.097854458341331       3.15231175974736         -0.598209132244129      
118800       0.817597517185544        1.82167670937128         -0.130700893952614       -0.0777047466054482      -0.14211838029118        -0.0570519051337612      1.93139755766621         -1.28575425234451       
118900       1.60103991876569         1.21035751686706         -0.0166562471334964      0.0476383924251164       -0.00939240317793377     0.0490865986053564       0.927051438033803        -1.0296470109158        
119000       1.74326045814464         0.240596218876401        0.00602260418802401      0.0257945737954854       0.00916534845444517      0.0243702914739572       0.627360560028672        -0.468638424888827      
