!Keysight Technologies PLTS 2023U1(64 bit), Build 20230630.1
!Deembedding/AFR applied
!FILE: C:\Users\jaha\OneDrive - Nokia\Project\Deacon_v3\Measure\250307 MPW12 GapWG\GapWG_Line2.s2p
!$DUT_CFG_DESC: Default 2-Port Configuration
!$NUMBER_PORTS: 2
!$DIFF_PORT_MAP: 1|1P|2|1P|
!$PORT_MAP: 1|1|<<<<<<|2|2|>>>>>>|
!Date: Thursday, March 20, 2025, 10:12:42
!S2P File: Measurements: S11,S21,S12,S22:
# MHz S  RI   R 50
110000       0.377569514026566        -0.595845163946716       0.000398715413577834     -0.000435705867626952    0.000267462649081535     -0.000536952072782509    0.305895096473545        0.135076186968515       
110100       0.34569628999669         -0.574417860796905       0.000273313549920502     -0.000442028033116744    0.000239964571576379     -0.00044310592336063     0.292088805061765        0.112306673126084       
110200       0.315642946272131        -0.552429572318118       0.000306419704317182     -0.000426103753905317    0.00022422516506948      -0.000522937577519145    0.277648468466521        0.0909580889373706      
110300       0.287376024654113        -0.529914674466933       0.000241355897528081     -0.000492890309585802    0.000156276154652968     -0.000534549151322117    0.262632007536645        0.0709965485142227      
110400       0.260868815324423        -0.506918827352444       0.000115009734199709     -0.000512031477117891    2.40631551642334E-05     -0.000562708499868059    0.247101609019326        0.0524015789090464      
110500       0.23609544023964         -0.483489956114041       -2.53625904206752E-05    -0.000557760902710534    -0.000111078530969477    -0.0005385208370563      0.231115333693289        0.0351538425470968      
110600       0.213033083281543        -0.459678090761888       -0.000173246540554057    -0.000463730373007466    -0.000294112408543157    -0.000432054815863614    0.214729521097009        0.0192357485781857      
110700       0.191659733357797        -0.435531784267739       -0.000273082945520259    -0.000480766897528396    -0.000451620356968219    -0.000493200981688924    0.198000340252487        0.00462694781782857     
110800       0.171955186162726        -0.411099435893557       -0.000382333820495291    -0.000353839951085205    -0.000483202628194679    -0.000294468458608144    0.180982214809495        -0.00869703859661122    
110900       0.153896545004779        -0.386433080685536       -0.000486588211672274    -0.00014789375708295     -0.000485094256675422    -0.000113003316702276    0.163725809672474        -0.0207626823618269     
111000       0.137461887049729        -0.361584977501032       -0.00048921331421963     -6.56802214019705E-05    -0.000482575396581808    2.25429830038593E-05     0.146284754514232        -0.031586265896919      
111100       0.122630774427481        -0.336610854986319       -0.000441832810645881    0.000135646382990301     -0.000405439999646262    0.000150063824641222     0.128717193694076        -0.0411923299511181     
111200       0.109383620890185        -0.311568145303212       -0.00035884671420803     0.000189329852515819     -0.000358656565179416    0.000308549445136919     0.1110736394866          -0.0495932602709622     
111300       0.0976974958669072       -0.286510840590807       -0.000232134016700608    0.00030355894188105      -0.000247351746022417    0.000329370507799354     0.0934072961351228       -0.0568192975702411     
111400       0.0875475230607457       -0.261495122327422       -0.000168107322395501    0.000443923113414471     -0.00011617653449747     0.000434994595355676     0.0757667605506829       -0.0628884952991083     
111500       0.0789091809489854       -0.23657698413148        -3.01031694639509E-05    0.00041672820301927      1.18194281668593E-05     0.000356674644779176     0.0582060224373436       -0.0678265733539329     
111600       0.0717548184783273       -0.211813580764259       0.000111076970308094     0.00032012258014468      0.000133062037029674     0.000293880435549454     0.040771820508456        -0.0716598836878404     
111700       0.0660599766918342       -0.187261957057572       0.000168578051324391     0.000250497330065538     0.000199505070375139     0.000244166549588698     0.0235124786305961       -0.0744100092447976     
111800       0.0617985314054814       -0.162978586539808       0.000187115689006128     0.000224389569663672     0.000210191092666179     0.000172565140697856     0.00646916831493174      -0.076103766635341      
111900       0.058939796346214        -0.13901867071659        0.000168321639006135     0.000128664819558799     0.000192568733620391     0.00010828004093355      -0.0103120745137696      -0.0767679286925278     
112000       0.0574494520973588       -0.115436238094307       0.000211149437440474     5.80790224840044E-05     0.000177188981805187     8.29615264308359E-06     -0.02678662362599        -0.0764336223565047     
112100       0.0572895923306317       -0.0922844762235429      0.000216649627824254     -1.48721611255277E-06    0.000245171110456965     -1.22080273179392E-05    -0.042908227757144       -0.0751336869614647     
112200       0.058423835676917        -0.0696157526840922      0.000223896946849287     6.17107646597943E-05     0.000245585126210202     3.82772451139601E-05     -0.0586376459662648      -0.0729003941018112     
112300       0.0608160686618207       -0.0474812641711455      0.000212038794568858     2.47734367480682E-05     0.000210303707081305     -6.57537619019877E-07    -0.0739364785505585      -0.0697657922393846     
112400       0.0644293818347686       -0.0259306211080249      0.000353014642342943     -7.84090324524907E-05    0.000329322027448953     -4.71426405397324E-05    -0.0887698478709479      -0.0657631439137494     
112500       0.0692212783461108       -0.00501177637404625     0.000349753510813042     -0.000119916353186994    0.000316950180484388     -0.000130085662693347    -0.103103758860566       -0.0609298918990129     
112600       0.0751455503933085       0.0152281515220572       0.000318936693384135     -0.000383309708550904    0.000347347676776799     -0.000396825360788       -0.116902265401681       -0.0553031170803869     
112700       0.0821561784203102       0.0347442082729049       0.000207201327571911     -0.000456843384078557    0.000140526484600834     -0.000466984479546184    -0.130132476253351       -0.0489204467405467     
112800       0.090206115325551        0.0534936667692744       -8.45370488046774E-05    -0.00061648990759108     -0.000127363454220486    -0.000663915544036442    -0.142760725257884       -0.0418235546629097     
112900       0.0992469484649979       0.0714357670136545       -0.000435741171626287    -0.000678279063318144    -0.000399078469165204    -0.000670336700899554    -0.154767732816219       -0.0340526307852737     
113000       0.109228784475583        0.0885329278164799       -0.000539348492376001    -0.000645025568576989    -0.000649713659795381    -0.000664961650340246    -0.166125098338787       -0.0256487338524861     
113100       0.12009831078699         0.104747913699231        -0.00109582841059808     -0.000325892329535517    -0.00110263991730974     -0.000343480211878244    -0.176807031653011       -0.0166543489963409     
113200       0.131799819772476        0.120044462077924        -0.000923950788487368    0.000371302620691566     -0.000880870979901971    0.000377581128461202     -0.18678774505126        -0.00711038244097614    
113300       0.144277972541797        0.134390234526035        -0.000483934500292547    0.000620184101377573     -0.00052369133321406     0.00072907566654834      -0.196046017176209       0.00293876023668943     
113400       0.157478175840833        0.147757545595597        -0.000188578157219018    0.000649705186569488     -0.000184786436658868    0.000664344883801959     -0.204568104462715       0.0134506117340985      
113500       0.17134520910848         0.160122438316519        8.79272008742313E-05     0.000572947148093805     0.000104596064772977     0.000601713697548689     -0.212338696345219       0.024379032208686       
113600       0.185820775669927        0.17146305815394         0.000254577322455118     0.000527108859995384     0.000320139740537684     0.000516254686374396     -0.219351321803277       0.0356753342610268      
113700       0.200847499568134        0.181760454885665        0.000461543327588968     0.0004958239426725       0.000483691928494068     0.000387187099065045     -0.225594225410281       0.0472910017373322      
113800       0.216364327741207        0.190995701104815        0.00049004433242654      0.000172217370706965     0.000507185127197829     0.000172240478848451     -0.231058594978051       0.0591834019429014      
113900       0.232310723171499        0.199152841974081        0.000517469175563557     7.61828715088635E-05     0.000530033461544122     -2.83109173224716E-05    -0.235739413166744       0.0713081242789786      
114000       0.248626191965586        0.206220529316326        0.000461711112614689     -0.000144254224802165    0.000399425071023529     -0.000147312023720758    -0.239630859184409       0.0836195902079054      
114100       0.265249741637102        0.212190713347848        0.000316441257540781     -0.000242186953021073    0.000245762838048336     -0.00026640984376769     -0.242735053804019       0.0960709160212779      
114200       0.282120202380683        0.217058546327177        0.000154329690521843     -0.000355569766672261    0.000109488763603949     -0.000361536673466389    -0.245052312818137       0.108615466124933       
114300       0.299175975961245        0.220821851391933        2.58208054265725E-05     -0.000373811123219582    3.13870006500849E-05     -0.000357241908618633    -0.246587679782518       0.121208511800336       
114400       0.31635628971787         0.223480775981483        -7.81609841542713E-05    -0.000297359884328509    -5.28633406879919E-05    -0.000304543352782183    -0.247346406563073       0.133805850285246       
114500       0.333600971169563        0.225037718356258        -0.000126462835091312    -0.000215574451151259    -0.000112794046494002    -0.000191602173043925    -0.247336500147756       0.146364725855045       
114600       0.350849566947043        0.225500065317537        -0.000132705602399309    -0.000162867135609361    -0.000145350567256841    -0.00013902135131616     -0.246568931520619       0.158841670885297       
114700       0.368042876945313        0.224877912889193        -0.000161908641863633    -0.000114142597203672    -0.000175455557961612    -0.000106686828678981    -0.245056285299332       0.17119385084313        
114800       0.385121068809734        0.223184924307246        -0.000185899016200795    -9.32302031124318E-05    -0.000169151719411786    -9.45038231598971E-05    -0.242814947783072       0.183377929560533       
114900       0.402026452608898        0.220437143142314        -0.000214602466044288    -8.79570460314087E-05    -0.000193104541352795    -8.15221645318331E-05    -0.239861216716689       0.195354003827882       
115000       0.418701647872328        0.216652431458273        -0.000269078581326141    -3.19224443637229E-05    -0.000276785661103673    -1.97267460322337E-06    -0.236214024857806       0.207083436408081       
115100       0.435092831803874        0.211851895053777        -0.000340123227425231    9.10024579043643E-05     -0.000334287467059102    0.00011021811167744      -0.231895018594991       0.218529438293629       
115200       0.451145459168508        0.206059724316252        -0.000299968930931972    0.000240107175904634     -0.000310833988542925    0.000252244253022837     -0.226926960041733       0.229655401283755       
115300       0.466807126066502        0.199303258478703        -0.000142111535969187    0.000358171741394438     -0.00016432634069119     0.000388285621510498     -0.221334277549168       0.240426112007129       
115400       0.482025822297592        0.191612304878513        1.89977081578329E-08     0.000432042496029493     1.996927981196E-06       0.000433674326618672     -0.215143651726443       0.250806361222761       
115500       0.496752977163717        0.183019240895437        0.00012256144990126      0.000510915021915104     0.000153314138092497     0.000501520996248672     -0.20838141364605        0.260765348596932       
115600       0.510942138828758        0.173558117961545        0.000463532775825665     0.000551570767437361     0.000495813401332867     0.000539563425668632     -0.201077436692047       0.270274261915788       
115700       0.524549265635703        0.163265864919055        0.000787518672707016     0.000275990029609056     0.000774256204312707     0.000279063099630328     -0.193263845740506       0.27930544236588        
115800       0.537530891275018        0.152181259160659        0.00110859249357754      -8.66781729911305E-05    0.00108707152782017      -0.000122137359825025    -0.184973192259411       0.287833337997948       
115900       0.549847440294137        0.140345631880964        0.00119256285652229      -0.000950512928726066    0.001086693216795        -0.000927772452778974    -0.176239035106549       0.295834322563638       
116000       0.561460843539211        0.127802595928483        0.000669124867559047     -0.0018869612458684      0.000520789055591386     -0.00184636242999048     -0.167095623555243       0.303286671542127       
116100       0.572335400829057        0.114596260397637        -0.00072437526144774     -0.00263490142139045     -0.000843532306710415    -0.00246194168550673     -0.157578523178791       0.310170207447825       
116200       0.582439168720627        0.100774584305788        -0.00271837652271656     -0.00190388727459475     -0.00262532554838657     -0.00180061866229275     -0.147724952125697       0.316468996772304       
116300       0.591742092881097        0.0863855429266792       -0.00396790588207661     -0.000127641534797444    -0.00405312830929105     -1.23318656619631E-07    -0.137572777722305       0.322167706580356       
116400       0.600217497746787        0.0714777698502233       -0.00333003022744843     0.00298299598158961      -0.00333279043927881     0.00306609379785883      -0.127159447992601       0.327252319510457       
116500       0.607841089982531        0.0561014929176917       -0.000984122583463607    0.00439091750473862      -0.00122583817319111     0.00452648472273687      -0.116521739345175       0.33171278312317        
116600       0.614591264251281        0.0403072037512734       0.000990084730328346     0.00438718604573329      0.00118800550739806      0.00445095618573532      -0.105697429285864       0.335540732219715       
116700       0.620449926834711        0.0241458685018595       0.00285842623044954      0.00361757015091337      0.00333375310394857      0.00341772598797085      -0.0947260213238303      0.338730606531442       
116800       0.625402433572455        0.00767026781580194      0.00414464385999774      0.00238886771538017      0.00420531409583447      0.00232498600376463      -0.0836443811960996      0.341279391544188       
116900       0.629436855778409        -0.0090666767001897      0.00571936641226343      0.000800235734655568     0.00577040158018605      0.000692180666515441     -0.0724916782572774      0.343186446808383       
117000       0.63254363489161         -0.0260111729592432      0.00684865191468106      -0.00225886055289504     0.00671897947229638      -0.00262933461686465     -0.0613062469083653      0.344452750559042       
117100       0.634717054673165        -0.04311032852574        0.00698899202925141      -0.00645812318818806     0.00651141317146653      -0.00691682709142061     -0.0501252849490626      0.345082407063031       
117200       0.635954837633233        -0.0603109723404998      0.00385776525156185      -0.00885499533936189     0.00267841419458748      -0.00966224984397002     -0.0389864912713435      0.345080695761767       
117300       0.636257990449012        -0.0775603884298325      -0.00115428236640059     -0.0133288504104386      -0.00286178964091643     -0.0136869510861013      -0.0279258591303809      0.344455874343522       
117400       0.635629947541249        -0.0948063815974607      -0.0119155158632706      -0.0118255108155574      -0.0131732641388989      -0.0107571507038866      -0.0169782608206487      0.343218628367222       
117500       0.634076630366628        -0.111997461723973       -0.0196611901088836      -0.000444159603445295    -0.02043328985987        0.00132447533491842      -0.00617867039719232     0.341379790139182       
117600       0.631607442704005        -0.129082996872727       -0.0136044910402247      0.00995426642334931      -0.0129628597396216      0.0111063023223785       0.0044391772433748       0.338953863234366       
117700       0.628234342655562        -0.146012410720669       -0.00581457643612172     0.0159284544653779       -0.00411972836156238     0.0161235787818121       0.0148429936809675       0.33595729504131        
117800       0.623973165636817        -0.16273768719163        0.00322944726631641      0.0134921969826641       0.00428115139603591      0.0131818411591187       0.0250015875299235       0.332408757310009       
117900       0.618841715541081        -0.179211113476943       0.00498362961678619      0.007502644887971        0.00527226423161409      0.00736825566607635      0.0348847820261114       0.32832897487187        
118000       0.612860326313058        -0.195386760471716       0.00546331373763864      0.00640981690092753      0.0060142833365262       0.00620005426615933      0.044464036363187        0.323739625081867       
118100       0.606051958176507        -0.211219461876875       0.0076064295316884       0.00499891250170956      0.00768431120958724      0.00467778565570853      0.0537132849543661       0.318663122004527       
118200       0.598441697401182        -0.226666101421846       0.0105024777910719       0.00145743143991079      0.0107490210806667       0.00104664258034148      0.0626073837549444       0.313123856396759       
118300       0.590057243746609        -0.241686038668312       0.0144625845376597       -0.00431729033962522     0.0142810562257374       -0.00505331209220117     0.0711224409902093       0.307148109144871       
118400       0.580929487558739        -0.256241298059364       0.0174027962032421       -0.030198052011777       0.0160360949427343       -0.0311497957274867      0.0792369034067826       0.300762260418072       
118500       0.571090570288944        -0.270295531662178       -0.30027455837122        -0.0329498310778969      -0.305465012479765       -0.0163682622816097      0.0869314452466867       0.293994521932836       
118600       0.560573384620399        -0.28381482802617        0.115846144976973        0.0523219436732901       0.120770355011544        0.0433547964302328       0.0941880962264335       0.286873502168279       
118700       0.549413036953727        -0.296766176171323       0.0628731990361002       -0.011477869526875       0.0632333863441534       -0.0158991486309503      0.100991456198281        0.279429070820091       
118800       0.537646221425074        -0.309119944830513       0.037157076737588        -0.018634039458331       0.0361450877219429       -0.0220559524533783      0.107327549385022        0.271691338401079       
118900       0.525311243473637        -0.320848491013024       0.0209965201305302       -0.0229422919477938      0.0195757401613434       -0.0243577385226175      0.11318473395674         0.263692469569606       
119000       0.512447653882533        -0.331927846814624       0.00877787339353445      -0.0225494389232404      0.00799465147939316      -0.0226278735829819      0.118552833578868        0.255463642230915       
