! Touchstone file exported from HFSS 2020.2.4
!        File:           D:/Project/Deacon_v3/240214_MPW12_Gap_WG_Tester_D2A/Gap_WG_Tester_D2.aedt
!        Generated:      11:45:36 AM  Mar 20, 2025
!        Design:         Thru
!        Project:        Gap_WG_Tester_D2
!        Setup:          Setup1
!        Solution:       Sweep
!
! Variables:
!        C_G = 0um
!        C_H = 0.5mm
!        E_P = 133um
!        S_H1 = 260um
!        S_H2 = 13um
!        S_H3 = 8um
!        S_X = 30mm
!        S_X0 = 15mm
!        S_Y = 15mm
!        S_Y0 = 7.5mm
!        TL_G = 40um
!        TL_L = 9.64678486627962mm
!        TL_W = 240um
!        TR_L = 706.43026744077um
!        TR_L2 = 226.8691264263um
!        TR_L3 = 373.29154801399um
!        TR_P = 109.62537243288um
!        TR_W = 1597.2041747747um
!        TR_W2 = 282.226541747um
!        V_PBO = 20um
!        V_Pad = 40um
!        V_R = 20um
!        WG_L = 0.8255mm
!        WG_W = 1.651mm
!        th = 5um
!
!Data is not renormalized
# GHZ S MA
! Terminal data exported
! Port[1] = 1
! Port[2] = 2
110                            0.882899787892435 135.63085384528  0.00273766559094006 76.1973989618989 0.00273766559094006 76.1973989618989 0.886100053048817 135.211572221757 
! Gamma         0.817008633395984 1272.16775854348 0.816995869088354 1272.16744369704 
! Port Impedance         420.512305383117 0.281650262653018 420.524466849125 0.281662341255442 
110.1                          0.885259406977945 135.416947410876 0.00278609006052551 76.5140467496704 0.00278609006052552 76.5140467496702 0.889113877531953 135.020487045376 
! Gamma         0.815117650956669 1275.96246629428 0.815104852641334 1275.96215230229 
! Port Impedance         419.642734041679 0.279749850765736 419.654869892303 0.27976186505631 
110.2                          0.887597901889879 135.199208078377 0.00283725461287456 76.8541170319232 0.00283725461287457 76.8541170319233 0.892032761845707 134.826336063365 
! Gamma         0.813243354463617 1279.74935489742 0.81323052225761 1279.74904175289 
! Port Impedance         418.78087815426  0.277875538061129 418.792988619663 0.277887488906054 
110.3                          0.889914370388191 134.977600051611 0.00289141694600582 77.2205807498944 0.00289141694600584 77.2205807498946 0.894857163948464 134.628768967158 
! Gamma         0.811385517646207 1283.52849356031 0.811372651665398 1283.52818125634 
! Port Impedance         417.926631143551 0.276026835996658 417.93871645067  0.276038724245211 
110.4                          0.89220789912041 134.752086800066 0.00294886707993382 77.6168415590303 0.00294886707993384 77.6168415590304 0.897588000953136 134.427458053251 
! Gamma         0.809543918490667 1287.2999505369  0.80953101884978 1287.29963906669 
! Port Impedance         417.079888453376 0.274203267756607 417.091948825983 0.274215094241665 
110.5                          0.89447756420984 134.522631059545 0.00300993221846335 78.0468131956589 0.00300993221846336 78.0468131956589 0.900226596889124 134.222099924146 
! Gamma         0.807718339137712 1291.06379314566 0.807705405950349 1291.06348250249 
! Port Impedance         416.240547499898 0.272404367909511 416.252583158664 0.272416133448044 
110.6                          0.896722431876614 134.2891948352   0.00307498240293455 78.5150134195576 0.00307498240293457 78.5150134195578 0.902774628731047 134.01241662775  
! Gamma         0.805908565783169 1294.8200877872  0.805895599161826 1294.81977796445 
! Port Impedance         415.408507624256 0.27062968207734 415.420518786811 0.27064138747088 
110.7                          0.898941559088847 134.051739407209 0.0031444370695103 79.0266786551107 0.0031444370695103 79.0266786551111 0.905234072110675 133.798156273464 
! Gamma         0.804114388581496 1298.56889996146 0.804101388637582 1298.5685909526  
! Port Impedance         414.58367004658  0.268878766616004 414.595656927566 0.268890412651089 
110.8                          0.901133994240496 133.810225339353 0.00321877261769037 79.587904601881  0.0032187726176904 79.5879046018814 0.907607147950654 133.579093173081 
! Gamma         0.802335601552087 1302.31029428447 0.802322568395942 1302.30998608303 
! Port Impedance         413.765937821336 0.267151188306716 413.777900632467 0.26716277575531 
110.9                          0.903298777851743 133.564612490787 0.00329853107547658 80.2058195745205 0.0032985310754766 80.2058195745209 0.909896271060788 133.355027561254 
! Gamma         0.800572002488274 1306.04433450471 0.800558936229186 1306.04402710433 
! Port Impedance         412.955215793965 0.265446524057795 412.967154744083 0.26545805367769 
111                            0.905434943286929 133.314860031298 0.00338432989031162 80.8887992602303 0.00338432989031165 80.8887992602307 0.91210400153218 133.125784953938 
! Gamma         0.798823392868933 1309.7710835191  0.798810293615157 1309.77077691351 
! Port Impedance         412.15141055876  0.263764360616508 412.163325853887 0.263775833151706 
111.1                          0.90754151748413 133.060926460334 0.00347687275740111 81.6467340668335 0.00347687275740114 81.646734066834  0.914232999561884 132.891215204241 
! Gamma         0.797089577772606 1313.49060338865 0.797076445631381 1313.49029757162 
! Port Impedance         411.354430417949 0.262104294290553 411.366322261339 0.262115710471628 
111.2                          0.909617521689499 132.802769630138 0.00357696117146498 82.4913634044096 0.00357696117146501 82.4913634044099 0.916285984149093 132.651191313978 
! Gamma         0.795370365794058 1317.20295535363 0.795357200871622 1317.20265031905 
! Port Impedance         410.564185341939 0.260465930678818 410.576053934131 0.260477291223267 
111.3                          0.911661972188435 132.54034677328  0.00368550597382361 83.4366952122295 0.00368550597382365 83.4366952122301 0.918265695929523 132.405608056299 
! Gamma         0.793665568963182 1320.90819984853 0.793652371364788 1320.90789559035 
! Port Impedance         409.78058693068  0.258848884411067 409.792432469546 0.25886019002364 
111.4                          0.913673881024463 132.273614534928 0.00380353742589491 84.4995338447474 0.00380353742589494 84.4995338447482 0.920174864261235 132.154380460557 
! Gamma         0.79197500266618 1324.60639651658 0.791961772496114 1324.60609302884 
! Port Impedance         409.003548376119 0.257252778896201 409.015371056915 0.25726403026922 
111.5                          0.915652256695481 132.002529010163 0.00393221103662405 85.7001448728624 0.00393221103662409 85.7001448728628 0.922016178544996 131.897442205526 
! Gamma         0.790298485568944 1328.29760422398 0.790285222930538 1328.29730150078 
! Port Impedance         408.232984425702 0.255677246078777 408.244784441114 0.255688443892445 
111.6                          0.917596104815675 131.727045786689 0.00407280410444683 87.0630907009056 0.00407280410444688 87.0630907009062 0.923792263655675 131.63474396148  
! Gamma         0.788635839542556 1331.98188107375 0.788622544538203 1331.98157910927 
! Port Impedance         407.468811346891 0.254121926203477 407.480588887082 0.254133071126167 
111.7                          0.919504428729982 131.447119993249 0.00422669403295636 88.61827419561   0.00422669403295639 88.6182741956107 0.925505659277415 131.366251715856 
! Gamma         0.786986889590853 1335.65928441935 0.786973562322025 1335.65898320785 
! Port Impedance         406.710946892663 0.252586467587215 406.722702145318 0.252597560275758 
111.8                          0.921376230066411 131.162706354093 0.00439530284721436 90.4022242588763 0.00439530284721441 90.4022242588769 0.92715880287276 131.091945111495 
! Gamma         0.785351463779983 1339.32987087792 0.785338104347242 1339.32957041372 
! Port Impedance         405.959310267961 0.25107052639862 405.971043418332 0.251081567498572 
111.9                          0.923210509209926 130.873759249813 0.00457998126883161 92.4596377243346 0.00457998126883166 92.4596377243356 0.928754015972197 130.811815820995 
! Gamma         0.78372939316988 1342.99369634326 0.783716001672892 1342.99339662075 
! Port Impedance         405.213822097065 0.249573766444594 405.225533328013 0.249584756590502 
112                            0.925006265679778 130.580232784904 0.00478178780289446 94.8451361949056 0.0047817878028945 94.8451361949068 0.930293493443122 130.52586597559  
! Gamma         0.782120511747607 1346.65081599848 0.782107088285159 1346.65051701214 
! Port Impedance         404.474404391847 0.248095858963709 404.486093883887 0.248106798779364 
112.1                          0.926762498390358 130.282080862355 0.00500109094167219 97.6250657209585 0.00500109094167224 97.6250657209594 0.931779295383215 130.234106662374 
! Gamma         0.780524656362504 1350.30128432843 0.780511201032515 1350.30098607278 
! Port Impedance         403.740980520898 0.246636482426176 403.752648452238 0.246647372524852 
112.2                          0.928478205773559 129.979257265632 0.00523688542413035 100.878891421245 0.0052368854241304 100.878891421246 0.933213341279999 129.936556499611 
! Gamma         0.778941666663086 1353.94515513178 0.778928179562619 1353.94485760142 
! Port Impedance         403.013475179477 0.245195322340144 403.025121726059 0.245206163324843 
112.3                          0.930152385738531 129.671715748395 0.00548567618124651 104.699206510068 0.00548567618124656 104.69920651007  0.934597406083236 129.633240296324 
! Gamma         0.777371385035621 1357.58248153292 0.777357866260899 1357.58218472252 
! Port Impedance         402.291814360279 0.243772071064119 402.303439695819 0.243782863527794 
112.4                          0.93178403544236 129.359410132301 0.00573978569305759 109.188454138302 0.00573978569305762 109.188454138304 0.935933117847505 129.324187799387 
! Gamma         0.775813656544364 1361.21331599349 0.775800106190782 1361.21301989778 
! Port Impedance         401.575925324976 0.242366427625255 401.587529621002 0.242377172151031 
112.5                          0.933372150842682 129.042294413297 0.00598508933587234 114.449144885714 0.00598508933587235 114.449144885716 0.937221956616685 129.009432528879 
! Gamma         0.774268328873363 1364.83771032377 0.774254747035498 1364.83741493754 
! Port Impedance         400.865736576518 0.24097809754332 400.87732000241  0.240988794704715 
112.6                          0.93491572600056 128.720322876803 0.00619868816095651 120.563219456512 0.0061986881609565 120.563219456513 0.938465254238177 128.689010700461 
! Gamma         0.77273525226981 1368.45571569372 0.772721639041434 1368.45542101183 
! Port Impedance         400.161177832172 0.239606792660137 400.172740555196 0.239617443021261 
112.7                          0.936413752098896 128.393450222266 0.00634809647001779 127.557298612661 0.00634809647001776 127.557298612662 0.939664194811095 128.362960232054 
! Gamma         0.771214279488879 1372.06738264389 0.771200634962972 1372.06708866124 
! Port Impedance         399.462179997269 0.23825223097429 399.473722182613 0.238262835090055 
112.8                          0.937865216138413 128.061631697632 0.00639480062473554 135.357780637162 0.00639480062473549 135.357780637164 0.940819815487823 128.03131983094  
! Gamma         0.769705265740008 1375.67276109596 0.769691590008771 1375.67246780755 
! Port Impedance         398.768675139634 0.236914136480924 398.780196950447 0.236924694897237 
112.9                          0.939269099269556 127.724823244367 0.00630465183630008 143.755180383222 0.00630465183630001 143.755180383223 0.941933007361062 127.694128156684 
! Gamma         0.768208068634582 1379.27190036321 0.768194361789444 1379.27160776406 
! Port Impedance         398.080596464696 0.235592239016448 398.092098062119 0.2356027522704  
113                            0.940624374714505 127.382981653822 0.0060628073565324 152.410610509734 0.00606280735653232 152.410610509735 0.943004516177826 127.351423054875 
! Gamma         0.766722548134972 1382.8648491606  0.766708810266604 1382.86455724581 
! Port Impedance         397.397878291233 0.234286274107971 397.409359834434 0.234296742728024 
113.1                          0.941930005228877 127.036064735895 0.00568380968925595 160.9240577284   0.00568380968925587 160.924057728401 0.944034942626699 127.003240856593 
! Gamma         0.765248566504884 1386.4516556148  0.76523479770321 1386.45136437952 
! Port Impedance         396.720456027753 0.232995982827307 396.731917673962 0.233006407333476 
113.2                          0.943184940047239 126.684031501216 0.00520760025527007 168.938060604132 0.00520760025527 168.938060604133 0.945024741943997 126.649615738743 
! Gamma         0.763785988260991 1390.03236727386 0.763772188615196 1390.03207671331 
! Port Impedance         396.04826614948  0.231721111649394 396.059708054018 0.231731492553419 
113.3                          0.944388111250428 126.326842358377 0.0046837391790141 176.21738721286  0.00468373917901405 176.21738721286  0.94597422257758 126.290579140932 
! Gamma         0.762334680125794 1393.6070311168  0.76232084972434 1393.60674122624 
! Port Impedance         395.381246175928 0.23046141231496 395.392668492241 0.230471750120479 
113.4                          0.945538429485335 125.964459328177 0.00415554565489925 -177.331790797154 0.00415554565489924 -177.331790797154 0.946883543632484 125.926159235509 
! Gamma         0.760894510981691 1397.17569356291 0.760880649912321 1397.17540433764 
! Port Impedance         394.719334649052 0.229216641697303 394.730737528741 0.229226936900017 
113.5                          0.946634778959302 125.596846277388 0.00365244865708949 -171.691210854897 0.00365244865708946 -171.691210854897 0.94775271079938 125.55638044863  
! Gamma         0.7594653518262  1400.73840048087 0.75945146017595 1400.73811191629 
! Port Impedance         394.062471111946 0.227986561673039 394.073854704799 0.227996814760875 
113.6                          0.94767601162114 125.223969175278 0.00319016902217516 -166.775084813846 0.00319016902217514 -166.775084813845 0.948581570433495 125.181263032094 
! Gamma         0.758047075728316 1404.29519719776 0.758033153583527 1404.29490928928 
! Port Impedance         393.410596088093 0.226770938996683 393.421960542112 0.22678115044995 
113.7                          0.948660940428673 124.84579637704  0.00277446001446164 -162.466781047051 0.00277446001446164 -162.466781047051 0.949369801406498 124.800822688141 
! Gamma         0.756639557785964 1407.84612850778 0.75662560523229 1407.84584125088 
! Port Impedance         392.763651061122 0.225569545178922 392.774996522554 0.225579715470469 
113.8                          0.949588331588284 124.462298939502 0.0024051052675803 -158.640932157716 0.00240510526758031 -158.640932157716 0.950116904294894 124.415070252732 
! Gamma         0.755242675084514 1411.39123868083 0.755228692206931 1411.39095207104 
! Port Impedance         392.121578455081 0.224382156368482 392.132905068447 0.224392285963842 
113.9                          0.950456895634543 124.07345097602  0.00207888295027462 -155.173187017399 0.00207888295027462 -155.173187017398 0.950822187393531 124.024011447372 
! Gamma         0.753856306656327 1414.93057147094 0.753842293539143 1414.93028550383 
! Port Impedance         391.484321615202 0.223208553237428 391.495629523324 0.223218642594968 
114                            0.951265277197154 123.679230059512 0.00179140349239848 -151.941729728805 0.00179140349239849 -151.941729728806 0.95148474894927 123.627646715653 
! Gamma         0.7524803334413  1418.46417012447 0.752466290168165 1418.46388479569 
! Port Impedance         390.851824789141 0.222048520869822 390.86311413317  0.222058570440886 
114.1                          0.952012043277374 123.279617685187 0.00153812238775964 -148.823619582002 0.00153812238775966 -148.823619582002 0.952103454895151 123.225971169057 
! Gamma         0.751114638248394 1421.99207738824 0.751100564902305 1421.99179269345 
! Port Impedance         390.224033108681 0.220901848653597 390.235304028122 0.220911858882643 
114.2                          0.952695669825951 122.874599807957 0.00131484557301231 -145.687393992482 0.00131484557301233 -145.687393992482 0.952676911227093 122.818974677967 
! Gamma         0.74975910571809 1425.51433551737 0.749745002381404 1425.5140514523  
! Port Impedance         389.600892571888 0.219768330175555 389.612145204628 0.219778301500291 
114.3                          0.953314526378687 122.464167474034 0.00111795749764026 -142.381991328901 0.00111795749764027 -142.381991328901 0.95320343000165 122.406642159619 
! Gamma         0.748413622285776 1429.03098628305 0.748399489040218 1429.03070284348 
! Port Impedance         388.982350025705 0.218647763119379 388.993584508038 0.218657695970898 
114.4                          0.953866858463062 122.048317572063 0.000944517979806504 -138.720984298701 0.000944517979806512 -138.7209842987  0.953680987745335 121.988954136404 
! Gamma         0.747078076146021 1432.54207098016 0.747063913072688 1432.54178816189 
! Port Impedance         388.368353148964 0.217539949166566 388.379569615618 0.217549843969474 
114.5                          0.954350767439185 121.627053737022 0.000792318064800748 -134.4605561885  0.000792318064800762 -134.460556188501 0.954107174858051 121.565887668069 
! Gamma         0.745752357217704 1436.04763043465 0.74573816439708 1436.04734823356 
! Port Impedance         387.758850435818 0.216444693900175 387.770049019977 0.216454551072716 
114.6                          0.95476418738039 121.200387450453 0.000659954156764672 -129.270883624909 0.000659954156764678 -129.270883624909 0.95447913437831 121.137417803123 
! Gamma         0.744436357110004 1439.54770501088 0.744422134621962 1439.54742342289 
! Port Impedance         387.153791179574 0.21536180671131 387.164972012902 0.215371626665491 
114.7                          0.955104858533428 120.768339394549 0.000546959995274588 -122.708506614474 0.000546959995274611 -122.708506614475 0.954793488283406 120.70351975287  
! Gamma         0.743129969089183 1443.04233461876 0.743115717012997 1443.04205363981 
! Port Impedance         386.553125456904 0.214291100708237 386.564288669573 0.214300883849946 
114.8                          0.955370296827467 120.330941136369 0.000453993397004762 -114.22589858865 0.000453993397004787 -114.225898588649 0.955046249376854 120.26417207226  
! Gamma         0.741833088046185 1446.53155872071 0.741818806460535 1446.53127834681 
! Port Impedance         385.956804112451 0.213232392628055 385.967949833159 0.213242139357184 
114.9                          0.955557758829929 119.888237243899 0.000382917711623396 -103.32551130998 0.000382917711623404 -103.325511309983 0.955232716865911 119.819361243821 
! Gamma         0.740545610464986 1450.01541633861 0.740531299447967 1450.01513656579 
! Port Impedance         385.364778743787 0.212185502750847 385.375907099785 0.212195213461401 
115                            0.955664201486033 119.440287970478 0.000336228221199411 -90.0243674992154 0.000336228221199426 -90.0243674992162 0.955347354127377 119.36908821593  
! Gamma         0.739267434391709 1453.49394606046 0.739253094020838 1453.49366688481 
! Port Impedance         384.777001686742 0.211150254816212 384.788112803852 0.211159929896425 
115.1                          0.955686235947432 118.987172691919 0.000315076721990285 -75.4701860088023 0.000315076721990296 -75.4701860088036 0.955383648201404 118.913377659151 
! Gamma         0.737998459404461 1456.96718604701 0.737984089756686 1456.96690746465 
! Port Impedance         384.193426001067 0.210126475942117 384.204520003708 0.210136115774559 
115.2                          0.955620074830565 118.528994346901 0.000316779273796394 -61.7305444182103 0.00031677927379639 -61.7305444182133 0.955333952752239 118.452290992186 
! Gamma         0.736738586583879 1460.43517403824 0.736724187735582 1460.43489604536 
